date Fri Oct 8 2:9:12 pm 2021
base hex  no internal events logged
// version 7.1.0
50952.766500 1 18FF6927x Rx d 8 FF 00 06 00 00 00 00 00 
50952.766800 1 18FEF71Ex Rx d 8 00 00 00 00 DD 00 00 00 
50952.767100 1 18FF8327x Rx d 8 AD 00 0C 00 00 00 00 00 
50952.769400 1 268 Rx d 7 47 C7 00 00 00 00 00 
50952.769900 1 C0027F3x Rx d 8 08 D0 07 7D 00 10 28 EE 
50952.770200 1 182027F3x Rx d 8 A1 00 00 00 E6 00 82 00 
50952.770500 1 182127F3x Rx d 8 BC 1B 3C 0F 64 0A 63 00 
50952.770800 1 182227F3x Rx d 8 08 00 00 7D 00 7D 00 00 
50952.771100 1 182327F3x Rx d 8 A8 00 9E 16 CA 03 02 00 
50952.771300 1 182627F3x Rx d 8 5E 15 96 00 00 7D 00 7D 
50952.771600 1 101027F3x Rx d 8 00 00 20 21 00 20 00 00 
50952.771900 1 10000111x Rx d 8 6C 6C 6C 6C 6C 6C 01 40 
50952.772200 1 18FF6C27x Rx d 8 0D FF 00 00 00 00 00 00 
50952.773400 1 066 Rx d 8 04 00 00 00 00 00 00 00 
50952.773600 1 18FF1027x Rx d 5 00 00 00 00 00 
50952.773900 1 18FF1727x Rx d 8 00 00 00 00 41 10 00 00 
50952.774200 1 18FF8379x Rx d 8 03 00 20 00 00 00 00 00 
50952.774500 1 27F72B6x Rx d 8 27 00 00 00 00 00 00 00 
50952.774700 1 18FF2013x Rx d 8 04 E0 00 08 00 68 00 00 
50952.775000 1 18FFA413x Rx d 8 1C FF 18 01 06 00 00 00 
50952.776300 1 18FF6A27x Rx d 8 00 00 00 F0 00 F0 00 06 
50952.776600 1 18FF8327x Rx d 8 AD 00 0C 00 00 00 00 00 
50952.776900 1 18FEF71Ex Rx d 8 00 00 00 00 DD 00 00 00 
50952.779400 1 268 Rx d 7 48 C7 00 00 00 00 00 
50952.781100 1 18FF6E27x Rx d 8 00 00 00 00 00 00 00 00 
50952.783300 1 18FF1027x Rx d 5 00 00 00 00 00 
50952.783600 1 18FF1727x Rx d 8 00 00 00 00 41 10 00 00 
50952.783900 1 18FF8379x Rx d 8 04 00 00 00 00 00 00 00 
50952.786300 1 18FF6B27x Rx d 8 00 00 00 00 00 00 00 00 
50952.786600 1 18FF2027x Rx d 8 00 11 00 0E 05 00 00 00 
50952.786900 1 18FFA527x Rx d 8 02 00 00 00 00 00 00 00 
50952.787200 1 18FEF71Ex Rx d 8 00 00 00 00 DD 00 00 00 
50952.787500 1 18FF8327x Rx d 8 AD 00 0C 00 00 00 00 00 
50952.789400 1 268 Rx d 7 49 C7 00 00 00 00 00 
50952.791100 1 18FF6827x Rx d 8 00 00 00 00 00 00 01 01 
50952.793300 1 18FF1027x Rx d 5 00 00 00 00 00 
50952.793500 1 18FF1727x Rx d 8 00 00 00 00 41 10 00 00 
50952.793800 1 C01FEFEx Rx d 8 04 00 00 00 00 00 00 00 
50952.794100 1 18FF8379x Rx d 8 45 00 00 0E 00 00 10 02 
50952.796300 1 18FF6927x Rx d 8 FF 00 06 00 00 00 00 00 
50952.796600 1 18FF8327x Rx d 8 AD 00 0C 00 00 00 00 00 
50952.796900 1 18FEF71Ex Rx d 8 00 00 00 00 D8 00 00 00 
50952.799500 1 268 Rx d 7 4A C7 00 00 00 00 00 
50952.801100 1 18FF6C27x Rx d 8 0D FF 00 00 00 00 00 00 
50952.803300 1 066 Rx d 8 05 00 00 00 00 00 00 00 
50952.803500 1 18FF1027x Rx d 5 00 00 00 00 00 
50952.803800 1 18FF1727x Rx d 8 00 00 00 00 41 10 00 00 
50952.804100 1 18FF8379x Rx d 8 06 00 00 00 00 00 00 00 
50952.804400 1 27F72B6x Rx d 8 08 00 00 00 00 00 00 00 
50952.804700 1 18FF2013x Rx d 8 04 E0 00 08 00 78 00 00 
50952.805000 1 18FFA413x Rx d 8 1C FF 18 01 07 00 00 00 
50952.806300 1 18FF6A27x Rx d 8 00 00 00 F0 00 F0 00 06 
50952.806600 1 18FEF71Ex Rx d 8 00 00 00 00 D4 00 00 00 
50952.806900 1 18FF8327x Rx d 8 AD 00 0C 00 00 00 00 00 
50952.809400 1 268 Rx d 7 4B C7 00 00 00 00 00 
50952.811100 1 18FF6E27x Rx d 8 00 00 00 00 00 00 00 00 
50952.813300 1 18FF1027x Rx d 5 00 00 00 00 00 
50952.813600 1 18FF1727x Rx d 8 00 00 00 00 41 10 00 00 
50952.813900 1 18FF8379x Rx d 8 07 10 00 00 50 00 00 00 
50952.817100 1 18FF6B27x Rx d 8 00 00 00 00 00 00 00 00 
50952.817400 1 18FF6D27x Rx d 8 04 50 68 52 09 21 04 01 
50952.817600 1 086 Rx d 8 00 00 00 00 00 00 00 00 
50952.817900 1 CFF1227x Rx d 8 00 D0 07 00 00 00 00 00 
50952.818200 1 CF11227x Rx d 8 00 34 08 00 00 00 00 00 
50952.818500 1 C00F327x Rx d 8 80 02 39 3A 28 28 40 12 
50952.818800 1 18FF2027x Rx d 8 00 11 00 0E 06 00 00 00 
50952.819100 1 18FFA527x Rx d 8 02 00 00 00 00 00 00 00 
50952.819300 1 18FEF71Ex Rx d 8 00 00 00 00 D1 00 00 00 
50952.819600 1 268 Rx d 7 4C C7 00 00 00 00 00 
50952.819800 1 18FF8427x Rx d 8 07 00 0A 07 00 E5 07 00 
50952.821100 1 18FF6827x Rx d 8 00 00 00 00 00 00 01 01 
50952.823300 1 18FF1027x Rx d 5 00 00 00 00 00 
50952.823600 1 18FF1727x Rx d 8 00 00 00 00 41 10 00 00 
50952.823900 1 18FF8379x Rx d 8 18 80 00 00 10 00 00 00 
50952.826300 1 18FF6927x Rx d 8 FF 00 06 00 00 00 00 00 
50952.826600 1 18FEF71Ex Rx d 8 00 00 00 00 CF 00 00 00 
50952.826900 1 18FF8427x Rx d 8 07 00 0A 07 00 E5 07 00 
50952.829500 1 268 Rx d 7 4D C7 00 00 00 00 00 
50952.831100 1 18FF6C27x Rx d 8 0D FF 00 00 00 00 00 00 
50952.833300 1 066 Rx d 8 06 00 00 00 00 00 00 00 
50952.833500 1 18FF1027x Rx d 5 00 00 00 00 00 
50952.833800 1 18FF1727x Rx d 8 00 00 00 00 41 10 00 00 
50952.834100 1 18FF8379x Rx d 8 29 01 00 00 00 00 00 00 
50952.834400 1 27F72B6x Rx d 8 30 00 00 00 00 00 00 00 
50952.834700 1 18FF2013x Rx d 8 04 E0 00 08 00 08 00 00 
50952.835000 1 18FFA413x Rx d 8 1C FF 18 01 00 00 00 00 
50952.836300 1 18FF6A27x Rx d 8 00 00 00 F0 00 F0 00 06 
50952.836600 1 18FF8427x Rx d 8 07 00 0A 07 00 E5 07 00 
50952.836900 1 18FEF71Ex Rx d 8 00 00 00 00 CE 00 00 00 
50952.839400 1 268 Rx d 7 4E C7 00 00 00 00 00 
50952.841100 1 18FF6E27x Rx d 8 00 00 00 00 00 00 00 00 
50952.844200 1 18FF8C13x Rx d 8 0D 00 00 00 00 00 00 00 
50952.845300 1 18FF1027x Rx d 5 00 00 00 00 00 
50952.845900 1 18FF1727x Rx d 8 00 00 00 00 41 10 00 00 
50952.846300 1 18FF5838x Rx d 8 06 00 00 00 37 00 00 00 
50952.846600 1 7149Ax Rx d 8 00 00 00 00 00 00 00 00 
50952.846900 1 069 Rx d 8 00 00 00 00 00 00 00 00 
50952.847100 1 C01FEFEx Rx d 8 04 00 00 00 00 00 00 00 
50952.847400 1 18FF2027x Rx d 8 00 11 00 0E 07 00 00 00 
50952.847700 1 18FF8379x Rx d 8 0A 00 00 00 00 00 00 00 
50952.848000 1 18FF8479x Rx d 8 01 00 00 00 00 00 00 00 
50952.848300 1 27F72BAx Rx d 8 CA FF 61 FF FF FF F5 07 
50952.848600 1 18FFA527x Rx d 8 02 00 00 00 00 00 00 00 
50952.848900 1 18FEF71Ex Rx d 8 00 00 00 00 CD 00 00 00 
50952.849100 1 400 Rx d 8 00 00 00 00 00 00 00 00 
50952.849400 1 18FF6B27x Rx d 8 00 00 00 00 00 00 00 00 
50952.849700 1 268 Rx d 7 4F C7 00 00 00 00 00 
50952.850000 1 18FF8427x Rx d 8 07 00 0A 07 00 E5 07 00 
50952.851100 1 18FF6827x Rx d 8 00 00 00 00 00 00 01 01 
50952.853400 1 18FF1027x Rx d 5 00 00 00 00 00 
50952.853600 1 18FF1727x Rx d 8 00 00 00 00 41 10 00 00 
50952.853900 1 18FF8379x Rx d 8 0B 00 00 00 40 08 00 00 
50952.856100 1 A100101x Rx d 1 E0 
50952.856400 1 18FF6927x Rx d 8 FF 00 06 00 00 00 00 00 
50952.856600 1 A100100x Rx d 8 E0 04 09 C0 03 00 BF 23 
50952.856900 1 18FEF71Ex Rx d 8 00 00 00 00 CC 00 00 00 
50952.857200 1 18FF8427x Rx d 8 07 00 0A 07 00 E5 07 00 
50952.859600 1 268 Rx d 7 50 C7 00 00 00 00 00 
50952.861100 1 18FF6C27x Rx d 8 0D FF 00 00 00 00 00 00 
50952.863400 1 066 Rx d 8 07 00 00 00 00 00 00 00 
50952.863600 1 18FF1027x Rx d 5 00 00 00 00 00 
50952.863900 1 18FF1727x Rx d 8 00 00 00 00 41 10 00 00 
50952.864200 1 18FF8379x Rx d 8 4C 5E D2 B9 F2 38 40 10 
50952.864500 1 27F72B6x Rx d 8 41 00 00 00 00 00 00 00 
50952.864700 1 18FF2013x Rx d 8 04 E0 00 08 00 18 00 00 
50952.865000 1 18FFA413x Rx d 8 1C FF 18 01 01 00 00 00 
50952.866500 1 18FF6A27x Rx d 8 00 00 00 F0 00 F0 00 06 
50952.866800 1 18FEF71Ex Rx d 8 00 00 00 00 CB 00 00 00 
50952.867100 1 18FF8427x Rx d 8 07 00 0A 07 00 E5 07 00 
50952.869500 1 268 Rx d 7 51 C7 00 00 00 00 00 
50952.870000 1 C0027F3x Rx d 8 08 D0 07 7D 00 10 28 EF 
50952.870200 1 182027F3x Rx d 8 A1 00 00 00 E6 00 82 00 
50952.870500 1 182127F3x Rx d 8 BC 1B 3C 0F 64 0A 63 00 
50952.870800 1 182227F3x Rx d 8 08 00 00 7D 00 7D 00 00 
50952.871100 1 182327F3x Rx d 8 A8 00 9E 16 CA 03 02 00 
50952.871300 1 182627F3x Rx d 8 5E 15 96 00 00 7D 00 7D 
50952.871600 1 101027F3x Rx d 8 00 00 20 21 00 20 00 00 
50952.871900 1 10000111x Rx d 8 6C 6C 6C 6C 6C 6C 01 40 
50952.872200 1 18FF6E27x Rx d 8 00 00 00 00 00 00 00 00 
50952.873300 1 18FF1027x Rx d 5 00 00 00 00 00 
50952.873600 1 18FF1727x Rx d 8 00 00 00 00 41 10 00 00 
50952.873800 1 18FF8379x Rx d 8 BD B3 62 18 60 02 01 00 
50952.876400 1 18FF6B27x Rx d 8 00 00 00 00 00 00 00 00 
50952.876700 1 18FF2027x Rx d 8 00 11 00 0E 00 00 00 00 
50952.877000 1 18FFA527x Rx d 8 02 00 00 00 00 00 00 00 
50952.877300 1 18FEF71Ex Rx d 8 00 00 00 00 CB 00 00 00 
50952.877600 1 18FF8427x Rx d 8 07 00 0A 07 00 E5 07 00 
50952.879400 1 268 Rx d 7 52 C7 00 00 00 00 00 
50952.881100 1 18FF6827x Rx d 8 00 00 00 00 00 00 01 01 
50952.883300 1 18FF1027x Rx d 5 00 00 00 00 00 
50952.883600 1 18FF1727x Rx d 8 00 00 00 00 41 10 00 00 
50952.883900 1 18FF8379x Rx d 8 0E 00 20 5B 05 1B 00 00 
50952.886300 1 18FF6927x Rx d 8 FF 00 06 00 00 00 00 00 
50952.886600 1 18FEF71Ex Rx d 8 00 00 00 00 CA 00 00 00 
50952.886900 1 18FF8427x Rx d 8 07 00 0A 07 00 E5 07 00 
50952.889500 1 268 Rx d 7 53 C7 00 00 00 00 00 
50952.891100 1 18FF6C27x Rx d 8 0D FF 00 00 00 00 00 00 
50952.893400 1 066 Rx d 8 00 00 00 00 00 00 00 00 
50952.893600 1 18FF1027x Rx d 5 00 00 00 00 00 
50952.893900 1 18FF1727x Rx d 8 00 00 00 00 41 10 00 00 
50952.894200 1 C01FEFEx Rx d 8 04 00 00 00 00 00 00 00 
50952.894500 1 18FF8379x Rx d 8 10 00 00 00 40 40 40 00 
50952.894800 1 27F72B6x Rx d 8 02 00 00 00 00 00 00 00 
50952.895100 1 18FF2013x Rx d 8 04 E0 00 08 00 28 00 00 
50952.895300 1 18FFA413x Rx d 8 1C FF 18 01 02 00 00 00 
50952.896300 1 18FF6A27x Rx d 8 00 00 00 F0 00 F0 00 06 
50952.896600 1 18FF8427x Rx d 8 07 00 0A 07 00 E5 07 00 
50952.896900 1 18FEF71Ex Rx d 8 00 00 00 00 C9 00 00 00 
50952.899400 1 268 Rx d 7 54 C7 00 00 00 00 00 
50952.901100 1 18FF6E27x Rx d 8 00 00 00 00 00 00 00 00 
50952.903300 1 18FF1027x Rx d 5 00 00 00 00 00 
50952.903600 1 18FF1727x Rx d 8 00 00 00 00 41 10 00 00 
50952.903900 1 18FF8379x Rx d 8 01 00 00 00 00 00 00 00 
50952.906400 1 18FF6B27x Rx d 8 00 00 00 00 00 00 00 00 
50952.906700 1 18FF2027x Rx d 8 00 11 00 0E 01 00 00 00 
50952.906900 1 18FFA527x Rx d 8 02 00 00 00 00 00 00 00 
50952.907200 1 18FEF71Ex Rx d 8 00 00 00 00 C9 00 00 00 
50952.907500 1 18FF8427x Rx d 8 07 00 0A 07 00 E5 07 00 
50952.909400 1 268 Rx d 7 55 C7 00 00 00 00 00 
50952.911100 1 18FF6827x Rx d 8 00 00 00 00 00 00 01 01 
50952.913300 1 18FF1027x Rx d 5 00 00 00 00 00 
50952.913600 1 18FF1727x Rx d 8 00 00 00 00 41 10 00 00 
50952.913900 1 18FF8379x Rx d 8 02 00 00 00 40 00 00 00 
50952.917000 1 18FF6927x Rx d 8 FF 00 06 00 00 00 00 00 
50952.917300 1 18FF6D27x Rx d 8 04 50 40 52 09 21 04 01 
50952.917600 1 18FF8427x Rx d 8 07 00 0A 07 00 E5 07 00 
50952.917800 1 086 Rx d 8 00 00 00 00 00 00 00 00 
50952.918100 1 CFF1227x Rx d 8 00 D0 07 00 00 00 00 00 
50952.918400 1 CF11227x Rx d 8 00 34 08 00 00 00 00 00 
50952.918700 1 C00F327x Rx d 8 80 02 39 3A 28 28 80 12 
50952.919000 1 18FEF71Ex Rx d 8 00 00 00 00 C9 00 00 00 
50952.919500 1 268 Rx d 7 56 C7 00 00 00 00 00 
50952.921100 1 18FF6C27x Rx d 8 0D FF 00 00 00 00 00 00 
50952.923300 1 066 Rx d 8 01 00 00 00 00 00 00 00 
50952.923600 1 18FF1027x Rx d 5 00 00 00 00 00 
50952.923900 1 18FF1727x Rx d 8 00 00 00 00 41 10 00 00 
50952.924100 1 18FF8379x Rx d 8 03 00 20 00 00 00 00 00 
50952.924400 1 27F72B6x Rx d 8 13 00 00 00 00 00 00 00 
50952.924700 1 18FF2013x Rx d 8 04 E0 00 08 00 38 00 00 
50952.925000 1 18FFA413x Rx d 8 1C FF 18 01 03 00 00 00 
50952.926300 1 18FF6A27x Rx d 8 00 00 00 F0 00 F0 00 06 
50952.926600 1 18FEF71Ex Rx d 8 00 00 00 00 C9 00 00 00 
50952.926900 1 18FF8427x Rx d 8 07 00 0A 07 00 E5 07 00 
50952.929400 1 268 Rx d 7 57 C7 00 00 00 00 00 
50952.931100 1 18FF6E27x Rx d 8 00 00 00 00 00 00 00 00 
50952.933400 1 18FF1027x Rx d 5 00 00 00 00 00 
50952.933700 1 18FF1727x Rx d 8 00 00 00 00 41 10 00 00 
50952.934000 1 18FF8379x Rx d 8 04 00 00 00 00 00 00 00 
50952.936400 1 18FF6B27x Rx d 8 00 00 00 00 00 00 00 00 
50952.936700 1 18FF2027x Rx d 8 00 11 00 0E 02 00 00 00 
50952.937000 1 18FFA527x Rx d 8 02 00 00 00 00 00 00 00 
50952.937200 1 18FEF71Ex Rx d 8 00 00 00 00 C9 00 00 00 
50952.937500 1 18FF8427x Rx d 8 07 00 0A 07 00 E5 07 00 
50952.939400 1 268 Rx d 7 58 C7 00 00 00 00 00 
50952.941100 1 18FF6827x Rx d 8 00 00 00 00 00 00 01 01 
50952.944200 1 18FF8C13x Rx d 8 0D 00 00 00 00 00 00 00 
50952.945700 1 18FF1027x Rx d 5 00 00 00 00 00 
50952.946000 1 18FF1727x Rx d 8 00 00 00 00 41 10 00 00 
50952.946300 1 18FF6927x Rx d 8 FF 00 06 00 00 00 00 00 
50952.946600 1 18FEF71Ex Rx d 8 00 00 00 00 C9 00 00 00 
50952.946900 1 18FF5838x Rx d 8 06 00 00 00 37 00 00 00 
50952.947200 1 7149Ax Rx d 8 00 00 00 00 00 00 00 00 
50952.947400 1 069 Rx d 8 00 00 00 00 00 00 00 00 
50952.947700 1 C01FEFEx Rx d 8 04 00 00 00 00 00 00 00 
50952.948000 1 18FF8379x Rx d 8 45 00 00 0E 00 00 10 02 
50952.948300 1 18FF8427x Rx d 8 07 00 0A 07 00 E5 07 00 
50952.948600 1 18FF8479x Rx d 8 01 00 00 00 00 00 00 00 
50952.948900 1 27F72BAx Rx d 8 0B 00 FF 01 70 00 1E 00 
50952.949200 1 400 Rx d 8 00 00 00 00 00 00 00 00 
50952.949600 1 268 Rx d 7 59 C7 00 00 00 00 00 
50952.951100 1 18FF6C27x Rx d 8 0D FF 00 00 00 00 00 00 
50952.953300 1 066 Rx d 8 02 00 00 00 00 00 00 00 
50952.953600 1 18FF1027x Rx d 5 00 00 00 00 00 
50952.953900 1 18FF1727x Rx d 8 00 00 00 00 41 10 00 00 
50952.954200 1 18FF8379x Rx d 8 06 00 00 00 00 00 00 00 
50952.954400 1 27F72B6x Rx d 8 14 00 00 00 00 00 00 00 
50952.954700 1 18FF2013x Rx d 8 04 E0 00 08 00 48 00 00 
50952.955000 1 18FFA413x Rx d 8 1C FF 18 01 04 00 00 00 
50952.956300 1 18FF6A27x Rx d 8 00 00 00 F0 00 F0 00 06 
50952.956600 1 18FF8427x Rx d 8 07 00 0A 07 00 E5 07 00 
50952.956900 1 18FEF71Ex Rx d 8 00 00 00 00 C9 00 00 00 
50952.959400 1 268 Rx d 7 5A C7 00 00 00 00 00 
50952.961100 1 18FF6E27x Rx d 8 00 00 00 00 00 00 00 00 
50952.963300 1 18FF1027x Rx d 5 00 00 00 00 00 
50952.963600 1 18FF1727x Rx d 8 00 00 00 00 41 10 00 00 
50952.963900 1 18FF8379x Rx d 8 07 10 00 00 50 00 00 00 
50952.966600 1 18FF6B27x Rx d 8 00 00 00 00 00 00 00 00 
50952.966800 1 18FF2027x Rx d 8 00 11 00 0E 03 00 00 00 
50952.967100 1 18FFA527x Rx d 8 02 00 00 00 00 00 00 00 
50952.967400 1 18FEF71Ex Rx d 8 00 00 00 00 C9 00 00 00 
50952.967700 1 18FF8427x Rx d 8 07 00 0A 07 00 E5 07 00 
50952.969400 1 268 Rx d 7 5B C7 00 00 00 00 00 
50952.970000 1 C0027F3x Rx d 8 08 D0 07 7D 00 10 28 F0 
50952.970200 1 182027F3x Rx d 8 A1 00 00 00 E6 00 82 00 
50952.970500 1 182127F3x Rx d 8 BC 1B 3C 0F 64 0A 63 00 
50952.970800 1 182227F3x Rx d 8 08 00 00 7D 00 7D 00 00 
50952.971100 1 182327F3x Rx d 8 A8 00 9E 16 CA 03 02 00 
50952.971400 1 182627F3x Rx d 8 5E 15 96 00 00 7D 00 7D 
50952.971600 1 101027F3x Rx d 8 00 00 20 21 00 20 00 00 
50952.971900 1 10000111x Rx d 8 6C 6C 6C 6C 6C 6C 01 40 
50952.972200 1 18FF6827x Rx d 8 00 00 00 00 00 00 01 01 
50952.973400 1 18FF1027x Rx d 5 00 00 00 00 00 
50952.973700 1 18FF1727x Rx d 8 00 00 00 00 41 10 00 00 
50952.974000 1 18FF8379x Rx d 8 18 80 00 00 10 00 00 00 
50952.976300 1 18FF6927x Rx d 8 FF 00 06 00 00 00 00 00 
50952.976600 1 18FF8427x Rx d 8 07 00 0A 07 00 E5 07 00 
50952.976900 1 18FEF71Ex Rx d 8 00 00 00 00 C9 00 00 00 
50952.979500 1 268 Rx d 7 5C C7 00 00 00 00 00 
50952.981100 1 18FF6C27x Rx d 8 0D FF 00 00 00 00 00 00 
50952.983400 1 066 Rx d 8 03 00 00 00 00 00 00 00 
50952.983600 1 18FF1027x Rx d 5 00 00 00 00 00 
50952.983900 1 18FF1727x Rx d 8 00 00 00 00 41 10 00 00 
50952.984200 1 18FF8379x Rx d 8 29 01 00 00 00 00 00 00 
50952.984500 1 27F72B6x Rx d 8 05 00 00 00 00 00 00 00 
50952.984800 1 18FF2013x Rx d 8 04 E0 00 08 00 58 00 00 
50952.985100 1 18FFA413x Rx d 8 1C FF 18 01 05 00 00 00 
50952.986300 1 18FF6A27x Rx d 8 00 00 00 F0 00 F0 00 06 
50952.986600 1 18FEF71Ex Rx d 8 00 00 00 00 C9 00 00 00 
50952.986900 1 18FF8427x Rx d 8 07 00 0A 07 00 E5 07 00 
50952.989400 1 268 Rx d 7 5D C7 00 00 00 00 00 
50952.991100 1 18FF6E27x Rx d 8 00 00 00 00 00 00 00 00 
50952.993300 1 18FF1027x Rx d 5 00 00 00 00 00 
50952.993600 1 18FF1727x Rx d 8 00 00 00 00 41 10 00 00 
50952.993900 1 C01FEFEx Rx d 8 04 00 00 00 00 00 00 00 
50952.994200 1 18FF8379x Rx d 8 0A 00 00 00 00 00 00 00 
50952.996400 1 18FF6B27x Rx d 8 00 00 00 00 00 00 00 00 
50952.996700 1 18FF2027x Rx d 8 00 11 00 0E 04 00 00 00 
50952.997000 1 18FFA527x Rx d 8 02 00 00 00 00 00 00 00 
50952.997300 1 18FEF71Ex Rx d 8 00 00 00 00 C9 00 00 00 
50952.997500 1 18FF8427x Rx d 8 07 00 0A 07 00 E5 07 00 
50952.999400 1 268 Rx d 7 5E C7 00 00 00 00 00 
50953.001100 1 18FF6827x Rx d 8 00 00 00 00 00 00 01 01 
50953.003300 1 18FF1027x Rx d 5 00 00 00 00 00 
50953.003600 1 18FF1727x Rx d 8 00 00 00 00 41 10 00 00 
50953.003900 1 18FF8379x Rx d 8 0B 00 00 00 40 08 00 00 
50953.006300 1 18FF6927x Rx d 8 FF 00 06 00 00 00 00 00 
50953.006600 1 18FEF71Ex Rx d 8 00 00 00 00 C8 00 00 00 
50953.006900 1 18FF8427x Rx d 8 07 00 0A 07 00 E5 07 00 
50953.009400 1 268 Rx d 7 5F C7 00 00 00 00 00 
50953.011100 1 18FF6C27x Rx d 8 0D FF 00 00 00 00 00 00 
50953.013500 1 066 Rx d 8 04 00 00 00 00 00 00 00 
50953.013800 1 18FF1027x Rx d 5 00 00 00 00 00 
50953.014100 1 18FF1727x Rx d 8 00 00 00 00 41 10 00 00 
50953.014300 1 18FF8379x Rx d 8 7C 2D F2 86 F2 38 40 10 
50953.014600 1 27F72B6x Rx d 8 16 00 00 00 00 00 00 00 
50953.014900 1 18FF2013x Rx d 8 04 E0 00 08 00 68 00 00 
50953.015200 1 18FFA413x Rx d 8 1C FF 18 01 06 00 00 00 
50953.016600 1 A100101x Rx d 1 E1 
50953.016900 1 A100100x Rx d 8 E1 04 07 5D 03 07 5E 03 
50953.017200 1 18FF6A27x Rx d 8 00 00 00 F0 00 F0 00 06 
50953.017500 1 18FF6D27x Rx d 8 04 50 44 52 09 21 04 01 
50953.017800 1 086 Rx d 8 00 00 00 00 00 00 00 00 
50953.018100 1 CFF1227x Rx d 8 00 D0 07 00 00 00 00 00 
50953.018400 1 CF11227x Rx d 8 00 34 08 00 00 00 00 00 
50953.018600 1 C00F327x Rx d 8 80 02 39 3A 28 28 C0 12 
50953.018900 1 18FEF71Ex Rx d 8 00 00 00 00 C8 00 00 00 
50953.019200 1 18FF8427x Rx d 8 07 00 0A 07 00 E5 07 00 
50953.019400 1 268 Rx d 7 60 C7 00 00 00 00 00 
50953.021100 1 18FF6E27x Rx d 8 00 00 00 00 00 00 00 00 
50953.023300 1 18FF1027x Rx d 5 00 00 00 00 00 
50953.023600 1 18FF1727x Rx d 8 00 00 00 00 41 10 00 00 
50953.023900 1 18FF8379x Rx d 8 DD 80 62 18 60 02 01 00 
50953.026300 1 18FF6B27x Rx d 8 00 00 00 00 00 00 00 00 
50953.026600 1 18FF2027x Rx d 8 00 11 00 0E 05 00 00 00 
50953.026900 1 18FFA527x Rx d 8 02 00 00 00 00 00 00 00 
50953.027200 1 18FEF71Ex Rx d 8 00 00 00 00 C8 00 00 00 
50953.027500 1 18FF8427x Rx d 8 07 00 0A 07 00 E5 07 00 
50953.029400 1 268 Rx d 7 61 C7 00 00 00 00 00 
50953.031100 1 18FF6827x Rx d 8 00 00 00 00 00 00 01 01 
50953.033300 1 18FF1027x Rx d 5 00 00 00 00 00 
50953.033600 1 18FF1727x Rx d 8 00 00 00 00 41 10 00 00 
50953.033900 1 18FF8379x Rx d 8 0E 00 80 F5 04 1B 00 00 
50953.036300 1 18FF6927x Rx d 8 FF 00 06 00 00 00 00 00 
50953.036600 1 18FF8427x Rx d 8 07 00 0A 07 00 E5 07 00 
50953.036900 1 18FEF71Ex Rx d 8 00 00 00 00 C8 00 00 00 
50953.039500 1 268 Rx d 7 62 C7 00 00 00 00 00 
50953.041100 1 18FF6C27x Rx d 8 0D FF 00 00 00 00 00 00 
50953.043400 1 18FF2745x Rx d 8 39 3A 00 FF 8C 00 00 9C 
50953.044300 1 18FF8C13x Rx d 8 0D 00 00 00 00 00 00 00 
50953.045300 1 066 Rx d 8 05 00 00 00 00 00 00 00 
50953.045800 1 18FF1027x Rx d 5 00 00 00 00 00 
50953.046100 1 18FF1727x Rx d 8 00 00 00 00 41 10 00 00 
50953.046300 1 18FF6A27x Rx d 8 00 00 00 F0 00 F0 00 06 
50953.046600 1 18FECA79x Rx d 8 04 04 00 00 00 00 00 00 
50953.046900 1 18FEF71Ex Rx d 8 00 00 00 00 C8 00 00 00 
50953.047200 1 18FF5838x Rx d 8 06 00 00 00 37 00 00 00 
50953.047500 1 7149Ax Rx d 8 00 00 00 00 00 00 00 00 
50953.047800 1 069 Rx d 8 00 00 00 00 00 00 00 00 
50953.048100 1 C01FEFEx Rx d 8 04 00 00 00 00 00 00 00 
50953.048300 1 18FF8379x Rx d 8 10 00 00 00 40 40 40 00 
50953.048600 1 18FF8427x Rx d 8 07 00 0A 07 00 E5 07 00 
50953.048900 1 18FF8479x Rx d 8 01 00 00 00 00 00 00 00 
50953.049200 1 27F72BAx Rx d 8 CC 02 04 00 00 00 00 00 
50953.049500 1 27F72B6x Rx d 8 27 00 00 00 00 00 00 00 
50953.049800 1 400 Rx d 8 00 00 00 00 00 00 00 00 
50953.050100 1 18FF2013x Rx d 8 04 E0 00 08 00 78 00 00 
50953.050300 1 268 Rx d 7 63 C7 00 00 00 00 00 
50953.050600 1 18FFA413x Rx d 8 1C FF 18 01 07 00 00 00 
50953.051100 1 18FF6E27x Rx d 8 00 00 00 00 00 00 00 00 
50953.053500 1 18FF1027x Rx d 5 00 00 00 00 00 
50953.053800 1 18FF1727x Rx d 8 00 00 00 00 41 10 00 00 
50953.054100 1 18FF8379x Rx d 8 01 00 00 00 00 00 00 00 
50953.056400 1 18FF6B27x Rx d 8 00 00 00 00 00 00 00 00 
50953.056700 1 18FF2027x Rx d 8 00 11 00 0E 06 00 00 00 
50953.057000 1 18FFA527x Rx d 8 02 00 00 00 00 00 00 00 
50953.057300 1 18FEF71Ex Rx d 8 00 00 00 00 C8 00 00 00 
50953.057600 1 18FF8427x Rx d 8 07 00 0A 07 00 E5 07 00 
50953.059500 1 268 Rx d 7 64 C7 00 00 00 00 00 
50953.061100 1 18FF6827x Rx d 8 00 00 00 00 00 00 01 01 
50953.063400 1 18FF1027x Rx d 5 00 00 00 00 00 
50953.063700 1 18FF1727x Rx d 8 00 00 00 00 41 10 00 00 
50953.064000 1 18FF8379x Rx d 8 02 00 00 00 40 00 00 00 
50953.066500 1 18FF6927x Rx d 8 FF 00 06 00 00 00 00 00 
50953.066800 1 18FEF71Ex Rx d 8 00 00 00 00 C8 00 00 00 
50953.067100 1 18FF8427x Rx d 8 07 00 0A 07 00 E5 07 00 
50953.069500 1 268 Rx d 7 65 C7 00 00 00 00 00 
50953.070100 1 C0027F3x Rx d 8 08 D0 07 7D 00 10 28 F1 
50953.070400 1 182027F3x Rx d 8 A1 00 00 00 E6 00 82 00 
50953.070600 1 182127F3x Rx d 8 BC 1B 3C 0F 64 0A 63 00 
50953.070900 1 182227F3x Rx d 8 08 00 00 7D 00 7D 00 00 
50953.071200 1 182327F3x Rx d 8 A8 00 9E 16 CA 03 02 00 
50953.071500 1 182627F3x Rx d 8 5E 15 8C 00 00 7D 00 7D 
50953.071800 1 101027F3x Rx d 8 00 00 20 21 00 20 00 00 
50953.072000 1 10000111x Rx d 8 6C 6C 6C 6C 6C 6C 01 40 
50953.072300 1 18FF6C27x Rx d 8 0D FF 00 00 00 00 00 00 
50953.073400 1 066 Rx d 8 06 00 00 00 00 00 00 00 
50953.073600 1 18FF1027x Rx d 5 00 00 00 00 00 
50953.073900 1 18FF1727x Rx d 8 00 00 00 00 41 10 00 00 
50953.074200 1 18FF8379x Rx d 8 03 00 20 00 00 00 00 00 
50953.074500 1 27F72B6x Rx d 8 08 00 00 00 00 00 00 00 
50953.074800 1 18FF2013x Rx d 8 04 E0 00 08 00 08 00 00 
50953.075100 1 18FFA413x Rx d 8 1C FF 18 01 00 00 00 00 
50953.076300 1 18FF6A27x Rx d 8 00 00 00 F0 00 F0 00 06 
50953.076600 1 18FF8427x Rx d 8 07 00 0A 07 00 E5 07 00 
50953.076900 1 18FEF71Ex Rx d 8 00 00 00 00 C8 00 00 00 
50953.079400 1 268 Rx d 7 66 C7 00 00 00 00 00 
50953.081100 1 18FF6E27x Rx d 8 00 00 00 00 00 00 00 00 
50953.083400 1 18FF1027x Rx d 5 00 00 00 00 00 
50953.083600 1 18FF1727x Rx d 8 00 00 00 00 41 10 00 00 
50953.083900 1 18FF8379x Rx d 8 04 00 00 00 00 00 00 00 
50953.086400 1 18FF6B27x Rx d 8 00 00 00 00 00 00 00 00 
50953.086600 1 18FF2027x Rx d 8 00 11 00 0E 07 00 00 00 
50953.086900 1 18FFA527x Rx d 8 02 00 00 00 00 00 00 00 
50953.087200 1 18FEF71Ex Rx d 8 00 00 00 00 C8 00 00 00 
50953.087500 1 18FF8427x Rx d 8 07 00 0A 07 00 E5 07 00 
50953.089400 1 268 Rx d 7 67 C7 00 00 00 00 00 
50953.091100 1 18FF6827x Rx d 8 00 00 00 00 00 00 01 01 
50953.093500 1 18FF1027x Rx d 5 00 00 00 00 00 
50953.093800 1 18FF1727x Rx d 8 00 00 00 00 41 10 00 00 
50953.094100 1 C01FEFEx Rx d 8 04 00 00 00 00 00 00 00 
50953.094400 1 18FF8379x Rx d 8 45 00 00 0E 00 00 10 02 
50953.096300 1 18FF6927x Rx d 8 FF 00 06 00 00 00 00 00 
50953.096600 1 18FF8427x Rx d 8 07 00 0A 07 00 E5 07 00 
50953.096900 1 18FEF71Ex Rx d 8 00 00 00 00 C8 00 00 00 
50953.099500 1 268 Rx d 7 68 C7 00 00 00 00 00 
50953.101100 1 18FF6C27x Rx d 8 0D FF 00 00 00 00 00 00 
50953.103400 1 066 Rx d 8 07 00 00 00 00 00 00 00 
50953.103600 1 18FF1027x Rx d 5 00 00 00 00 00 
50953.103900 1 18FF1727x Rx d 8 00 00 00 00 41 10 00 00 
50953.104200 1 18FF8379x Rx d 8 06 00 00 00 00 00 00 00 
50953.104500 1 27F72B6x Rx d 8 30 00 00 00 00 00 00 00 
50953.104800 1 18FF2013x Rx d 8 04 E0 00 08 00 18 00 00 
50953.105100 1 18FFA413x Rx d 8 1C FF 18 01 01 00 00 00 
50953.106300 1 18FF6A27x Rx d 8 00 00 00 F0 00 F0 00 06 
50953.106600 1 18FEF71Ex Rx d 8 00 00 00 00 C8 00 00 00 
50953.106900 1 18FF8427x Rx d 8 07 00 0A 07 00 E5 07 00 
50953.109400 1 268 Rx d 7 69 C7 00 00 00 00 00 
50953.111100 1 18FF6E27x Rx d 8 00 00 00 00 00 00 00 00 
50953.113400 1 18FF1027x Rx d 5 00 00 00 00 00 
50953.113700 1 18FF1727x Rx d 8 00 00 00 00 41 10 00 00 
50953.113900 1 18FF8379x Rx d 8 07 10 00 00 50 00 00 00 
50953.117100 1 18FF6B27x Rx d 8 00 00 00 00 00 00 00 00 
50953.117400 1 18FF6D27x Rx d 8 04 50 48 52 09 21 04 01 
50953.117600 1 086 Rx d 8 00 00 00 00 00 00 00 00 
50953.117900 1 CFF1227x Rx d 8 00 D0 07 00 00 00 00 00 
50953.118200 1 CF11227x Rx d 8 00 34 08 00 00 00 00 00 
50953.118500 1 C00F327x Rx d 8 80 02 39 3A 28 28 00 13 
50953.118700 1 18FF2027x Rx d 8 00 11 00 0E 00 00 00 00 
50953.119000 1 18FFA527x Rx d 8 02 00 00 00 00 00 00 00 
50953.119300 1 18FEF71Ex Rx d 8 00 00 00 00 C8 00 00 00 
50953.119600 1 268 Rx d 7 6A C7 00 00 00 00 00 
50953.119900 1 18FF8227x Rx d 8 0D 00 01 6D 00 02 01 00 
50953.121100 1 18FF6827x Rx d 8 00 00 00 00 00 00 01 01 
50953.123400 1 18FF1027x Rx d 5 00 00 00 00 00 
50953.123700 1 18FF1727x Rx d 8 00 00 00 00 41 10 00 00 
50953.124000 1 18FF8379x Rx d 8 18 80 00 00 10 00 00 00 
50953.126000 1 A100101x Rx d 1 E4 
50953.126300 1 18FF6927x Rx d 8 FF 00 06 00 00 00 00 00 
50953.126600 1 A100100x Rx d 8 E4 04 00 0E 05 02 E9 05 
50953.126900 1 18FEF71Ex Rx d 8 00 00 00 00 C8 00 00 00 
50953.127200 1 18FF8227x Rx d 8 0D 00 01 6D 00 02 01 00 
50953.129500 1 268 Rx d 7 6B C7 00 00 00 00 00 
50953.131100 1 18FF6C27x Rx d 8 0D FF 00 00 00 00 00 00 
50953.133600 1 066 Rx d 8 00 00 00 00 00 00 00 00 
50953.133800 1 18FF1027x Rx d 5 00 00 00 00 00 
50953.134100 1 18FF1727x Rx d 8 00 00 00 00 41 10 00 00 
50953.134400 1 18FF8379x Rx d 8 29 01 00 00 00 00 00 00 
50953.134700 1 27F72B6x Rx d 8 41 00 00 00 00 00 00 00 
50953.135000 1 18FF2013x Rx d 8 04 E0 00 08 00 28 00 00 
50953.135300 1 18FFA413x Rx d 8 1C FF 18 01 02 00 00 00 
50953.136300 1 18FF6A27x Rx d 8 00 00 00 F0 00 F0 00 06 
50953.136600 1 18FF8227x Rx d 8 0D 00 01 6D 00 02 01 00 
50953.136900 1 18FEF71Ex Rx d 8 00 00 00 00 C8 00 00 00 
50953.139400 1 268 Rx d 7 6C C7 00 00 00 00 00 
50953.141100 1 18FF6E27x Rx d 8 00 00 00 00 00 00 00 00 
50953.144300 1 18FF8C13x Rx d 8 0D 00 00 00 00 00 00 00 
50953.145800 1 18FF1027x Rx d 5 00 00 00 00 00 
50953.146100 1 18FF1727x Rx d 8 00 00 00 00 41 10 00 00 
50953.146400 1 18FF6B27x Rx d 8 00 00 00 00 00 00 00 00 
50953.146700 1 18FF2027x Rx d 8 00 11 00 0E 01 00 00 00 
50953.147000 1 18FF5838x Rx d 8 06 00 00 00 37 00 00 00 
50953.147200 1 7149Ax Rx d 8 00 00 00 00 00 00 00 00 
50953.147500 1 069 Rx d 8 00 00 00 00 00 00 00 00 
50953.147800 1 C01FEFEx Rx d 8 04 00 00 00 00 00 00 00 
50953.148100 1 18FF8379x Rx d 8 0A 00 00 00 00 00 00 00 
50953.148400 1 18FF8479x Rx d 8 01 00 00 00 00 00 00 00 
50953.148600 1 27F72BAx Rx d 8 0F 1C 0E 2F 0E FF 0F 00 
50953.148900 1 18FFA527x Rx d 8 02 00 00 00 00 00 00 00 
50953.149200 1 400 Rx d 8 00 00 00 00 00 00 00 00 
50953.149500 1 18FEF71Ex Rx d 8 00 00 00 00 C8 00 00 00 
50953.149700 1 268 Rx d 7 6D C7 00 00 00 00 00 
50953.150000 1 18FF8227x Rx d 8 0D 00 01 6D 00 02 01 00 
50953.151100 1 18FF6827x Rx d 8 00 00 00 00 00 00 01 01 
50953.153400 1 18FF1027x Rx d 5 00 00 00 00 00 
50953.153600 1 18FF1727x Rx d 8 00 00 00 00 41 10 00 00 
50953.153900 1 18FF8379x Rx d 8 0B 00 00 00 40 08 00 00 
50953.156300 1 18FF6927x Rx d 8 FF 00 06 00 00 00 00 00 
50953.156600 1 18FF8227x Rx d 8 0D 00 01 6D 00 02 01 00 
50953.156900 1 18FEF71Ex Rx d 8 00 00 00 00 C8 00 00 00 
50953.159500 1 268 Rx d 7 6E C7 00 00 00 00 00 
50953.161100 1 18FF6C27x Rx d 8 0D FF 00 00 00 00 00 00 
50953.163400 1 066 Rx d 8 01 00 00 00 00 00 00 00 
50953.163600 1 18FF1027x Rx d 5 00 00 00 00 00 
50953.163900 1 18FF1727x Rx d 8 00 00 00 00 41 10 00 00 
50953.164200 1 18FF8379x Rx d 8 3C 21 B2 78 F2 38 40 10 
50953.164500 1 27F72B6x Rx d 8 02 00 00 00 00 00 00 00 
50953.164800 1 18FF2013x Rx d 8 04 E0 00 08 00 38 00 00 
50953.165100 1 18FFA413x Rx d 8 1C FF 18 01 03 00 00 00 
50953.166500 1 18FF6A27x Rx d 8 00 00 00 F0 00 F0 00 06 
50953.166800 1 18FEF71Ex Rx d 8 00 00 00 00 C8 00 00 00 
50953.167100 1 18FF8327x Rx d 8 AD 00 0C 00 00 00 00 00 
50953.169400 1 268 Rx d 7 6F C7 00 00 00 00 00 
50953.170000 1 C0027F3x Rx d 8 08 D0 07 7D 00 10 28 F2 
50953.170300 1 182027F3x Rx d 8 A1 00 00 00 E6 00 82 00 
50953.170500 1 182127F3x Rx d 8 BC 1B 3C 0F 64 0A 63 00 
50953.170800 1 182227F3x Rx d 8 08 00 00 7D 00 7D 00 00 
50953.171100 1 182327F3x Rx d 8 A8 00 9E 16 CA 03 02 00 
50953.171400 1 182627F3x Rx d 8 5E 15 8C 00 00 7D 00 7D 
50953.171700 1 101027F3x Rx d 8 00 00 20 21 00 20 00 00 
50953.172000 1 10000111x Rx d 8 6C 6C 6C 6C 6C 6C 01 40 
50953.172300 1 18FF6E27x Rx d 8 00 00 00 00 00 00 00 00 
50953.173500 1 18FF1027x Rx d 5 00 00 00 00 00 
50953.173800 1 18FF1727x Rx d 8 00 00 00 00 41 10 00 00 
50953.174100 1 18FF8379x Rx d 8 9D 72 62 18 60 02 01 00 
50953.176400 1 18FF6B27x Rx d 8 00 00 00 00 00 00 00 00 
50953.176700 1 18FF2027x Rx d 8 00 11 00 0E 02 00 00 00 
50953.177000 1 18FFA527x Rx d 8 02 00 00 00 00 00 00 00 
50953.177300 1 18FEF71Ex Rx d 8 00 00 00 00 C8 00 00 00 
50953.177500 1 18FF8327x Rx d 8 AD 00 0C 00 00 00 00 00 
50953.179400 1 268 Rx d 7 70 C7 00 00 00 00 00 
50953.181100 1 18FF6827x Rx d 8 00 00 00 00 00 00 01 01 
50953.183500 1 18FF1027x Rx d 5 00 00 00 00 00 
50953.183800 1 18FF1727x Rx d 8 00 00 00 00 41 10 00 00 
50953.184100 1 18FF8379x Rx d 8 0E 00 00 D9 04 1B 00 00 
50953.186300 1 18FF6927x Rx d 8 FF 00 06 00 00 00 00 00 
50953.186600 1 18FEF71Ex Rx d 8 00 00 00 00 CA 00 00 00 
50953.186900 1 18FF8327x Rx d 8 AD 00 0C 00 00 00 00 00 
50953.189400 1 268 Rx d 7 71 C7 00 00 00 00 00 
50953.191100 1 18FF6C27x Rx d 8 0D FF 00 00 00 00 00 00 
50953.193400 1 066 Rx d 8 02 00 00 00 00 00 00 00 
50953.193600 1 18FF1027x Rx d 5 00 00 00 00 00 
50953.193900 1 18FF1727x Rx d 8 00 00 00 00 41 10 00 00 
50953.194200 1 C01FEFEx Rx d 8 04 00 00 00 00 00 00 00 
50953.194500 1 18FF8379x Rx d 8 10 00 00 00 40 40 40 00 
50953.194800 1 27F72B6x Rx d 8 13 00 00 00 00 00 00 00 
50953.195100 1 18FF2013x Rx d 8 04 E0 00 08 00 48 00 00 
50953.195400 1 18FFA413x Rx d 8 1C FF 18 01 04 00 00 00 
50953.196300 1 18FF6A27x Rx d 8 00 00 00 F0 00 F0 00 06 
50953.196600 1 18FF8327x Rx d 8 AD 00 0C 00 00 00 00 00 
50953.196900 1 18FEF71Ex Rx d 8 00 00 00 00 CF 00 00 00 
50953.199400 1 268 Rx d 7 72 C7 00 00 00 00 00 
50953.201100 1 18FF6E27x Rx d 8 00 00 00 00 00 00 00 00 
50953.203400 1 18FF1027x Rx d 5 00 00 00 00 00 
50953.203700 1 18FF1727x Rx d 8 00 00 00 00 41 10 00 00 
50953.204000 1 18FF8379x Rx d 8 01 00 00 00 00 00 00 00 
50953.206300 1 18FF6B27x Rx d 8 00 00 00 00 00 00 00 00 
50953.206600 1 18FF2027x Rx d 8 00 11 00 0E 03 00 00 00 
50953.206900 1 18FFA527x Rx d 8 02 00 00 00 00 00 00 00 
50953.207200 1 18FEF71Ex Rx d 8 00 00 00 00 D2 00 00 00 
50953.207500 1 18FF8327x Rx d 8 AD 00 0C 00 00 00 00 00 
50953.209400 1 268 Rx d 7 73 C7 00 00 00 00 00 
50953.211100 1 18FF6827x Rx d 8 00 00 00 00 00 00 01 01 
50953.213600 1 18FF1027x Rx d 5 00 00 00 00 00 
50953.213900 1 18FF1727x Rx d 8 00 00 00 00 41 10 00 00 
50953.214100 1 18FF8379x Rx d 8 02 00 00 00 40 00 00 00 
50953.217100 1 18FF6927x Rx d 8 FF 00 06 00 00 00 00 00 
50953.217300 1 18FF6D27x Rx d 8 04 50 50 52 09 21 04 01 
50953.217600 1 18FF8427x Rx d 8 07 00 0A 07 00 E5 07 00 
50953.217900 1 086 Rx d 8 00 00 00 00 00 00 00 00 
50953.218200 1 CFF1227x Rx d 8 00 D0 07 00 00 00 00 00 
50953.218500 1 CF11227x Rx d 8 00 34 08 00 00 00 00 00 
50953.218700 1 C00F327x Rx d 8 80 02 39 3A 28 28 40 13 
50953.219000 1 18FF4527x Rx d 8 36 32 7F 00 00 28 34 A9 
50953.219300 1 18FEF71Ex Rx d 8 00 00 00 00 D4 00 00 00 
50953.219500 1 268 Rx d 7 74 C7 00 00 00 00 00 
50953.221100 1 18FF6C27x Rx d 8 0D FF 00 00 00 00 00 00 
50953.223600 1 066 Rx d 8 03 00 00 00 00 00 00 00 
50953.223800 1 18FF1027x Rx d 5 00 00 00 00 00 
50953.224100 1 18FF1727x Rx d 8 00 00 00 00 41 10 00 00 
50953.224400 1 18FF8379x Rx d 8 03 00 20 00 00 00 00 00 
50953.224700 1 27F72B6x Rx d 8 14 00 00 00 00 00 00 00 
50953.225000 1 18FF2013x Rx d 8 04 E0 00 08 00 58 00 00 
50953.225200 1 18FFA413x Rx d 8 1C FF 18 01 05 00 00 00 
50953.226300 1 18FF6A27x Rx d 8 00 00 00 F0 00 F0 00 06 
50953.226600 1 18FEF71Ex Rx d 8 00 00 00 00 D6 00 00 00 
50953.226900 1 18FF8427x Rx d 8 07 00 0A 07 00 E5 07 00 
50953.229400 1 268 Rx d 7 75 C7 00 00 00 00 00 
50953.231100 1 18FF6E27x Rx d 8 00 00 00 00 00 00 00 00 
50953.233400 1 18FF1027x Rx d 5 00 00 00 00 00 
50953.233700 1 18FF1727x Rx d 8 00 00 00 00 41 10 00 00 
50953.234000 1 18FF8379x Rx d 8 04 00 00 00 00 00 00 00 
50953.236100 1 A100101x Rx d 1 E2 
50953.236400 1 A100100x Rx d 8 E2 04 01 E3 25 00 BA 26 
50953.236700 1 18FF2027x Rx d 8 00 11 00 0E 04 00 00 00 
50953.237000 1 18FFA527x Rx d 8 02 00 00 00 00 00 00 00 
50953.237300 1 18FEF71Ex Rx d 8 00 00 00 00 D7 00 00 00 
50953.237600 1 18FF6B27x Rx d 8 00 00 00 00 00 00 00 00 
50953.237800 1 18FF8427x Rx d 8 07 00 0A 07 00 E5 07 00 
50953.239400 1 268 Rx d 7 76 C7 00 00 00 00 00 
50953.241100 1 18FF6827x Rx d 8 00 00 00 00 00 00 01 01 
50953.244300 1 18FF8C13x Rx d 8 0D 00 00 00 00 00 00 00 
50953.245800 1 18FF1027x Rx d 5 00 00 00 00 00 
50953.246100 1 18FF1727x Rx d 8 00 00 00 00 41 10 00 00 
50953.246400 1 18FF6927x Rx d 8 FF 00 06 00 00 00 00 00 
50953.246700 1 18FEF71Ex Rx d 8 00 00 00 00 D8 00 00 00 
50953.246900 1 18FF5838x Rx d 8 06 00 00 00 37 00 00 00 
50953.247200 1 7149Ax Rx d 8 00 00 00 00 00 00 00 00 
50953.247500 1 069 Rx d 8 00 00 00 00 00 00 00 00 
50953.247800 1 C01FEFEx Rx d 8 04 00 00 00 00 00 00 00 
50953.248100 1 18FF8379x Rx d 8 45 00 00 0E 00 00 10 02 
50953.248300 1 18FF8427x Rx d 8 07 00 0A 07 00 E5 07 00 
50953.248600 1 18FF8479x Rx d 8 01 00 00 00 00 00 00 00 
50953.248900 1 27F72BAx Rx d 8 1A C0 04 D8 FF 07 00 00 
50953.249200 1 400 Rx d 8 00 00 00 00 00 00 00 00 
50953.249600 1 268 Rx d 7 77 C7 00 00 00 00 00 
50953.251100 1 18FF6C27x Rx d 8 0D FF 00 00 00 00 00 00 
50953.253600 1 066 Rx d 8 04 00 00 00 00 00 00 00 
50953.253800 1 18FF1027x Rx d 5 00 00 00 00 00 
50953.254100 1 18FF1727x Rx d 8 00 00 00 00 41 10 00 00 
50953.254400 1 18FF8379x Rx d 8 06 00 00 00 00 00 00 00 
50953.254700 1 27F72B6x Rx d 8 05 00 00 00 00 00 00 00 
50953.255000 1 18FF2013x Rx d 8 04 E0 00 08 00 68 00 00 
50953.255300 1 18FFA413x Rx d 8 1C FF 18 01 06 00 00 00 
50953.256300 1 18FF6A27x Rx d 8 00 00 00 F0 00 F0 00 06 
50953.256600 1 18FF8427x Rx d 8 07 00 0A 07 00 E5 07 00 
50953.256900 1 18FEF71Ex Rx d 8 00 00 00 00 D9 00 00 00 
50953.259500 1 268 Rx d 7 78 C7 00 00 00 00 00 
50953.261100 1 18FF6E27x Rx d 8 00 00 00 00 00 00 00 00 
50953.263500 1 18FF1027x Rx d 5 00 00 00 00 00 
50953.263800 1 18FF1727x Rx d 8 00 00 00 00 41 10 00 00 
50953.264100 1 18FF8379x Rx d 8 07 10 00 00 50 00 00 00 
50953.266500 1 18FF6B27x Rx d 8 00 00 00 00 00 00 00 00 
50953.266800 1 18FF2027x Rx d 8 00 11 00 0E 05 00 00 00 
50953.267100 1 18FFA527x Rx d 8 02 00 00 00 00 00 00 00 
50953.267400 1 18FEF71Ex Rx d 8 00 00 00 00 DA 00 00 00 
50953.267700 1 18FF8427x Rx d 8 07 00 0A 07 00 E5 07 00 
50953.269400 1 268 Rx d 7 79 C7 00 00 00 00 00 
50953.270000 1 C0027F3x Rx d 8 08 D0 07 7D 00 10 28 F3 
50953.270300 1 182027F3x Rx d 8 A1 00 00 00 E6 00 82 00 
50953.270600 1 182127F3x Rx d 8 BC 1B 3C 0F 64 0A 63 00 
50953.270900 1 182227F3x Rx d 8 08 00 00 7D 00 7D 00 00 
50953.271100 1 182327F3x Rx d 8 A8 00 9E 16 CA 03 02 00 
50953.271400 1 182627F3x Rx d 8 5E 15 8C 00 00 7D 00 7D 
50953.271700 1 101027F3x Rx d 8 00 00 20 21 00 20 00 00 
50953.272000 1 10000111x Rx d 8 6C 6C 6C 6C 6C 6C 01 40 
50953.272300 1 18FF6827x Rx d 8 00 00 00 00 00 00 01 01 
50953.273400 1 18FF1027x Rx d 5 00 00 00 00 00 
50953.273700 1 18FF1727x Rx d 8 00 00 00 00 41 10 00 00 
50953.274000 1 18FF8379x Rx d 8 18 80 00 00 10 00 00 00 
50953.276300 1 18FF6927x Rx d 8 FF 00 06 00 00 00 00 00 
50953.276600 1 18FF8427x Rx d 8 07 00 0A 07 00 E5 07 00 
50953.276900 1 18FEF71Ex Rx d 8 00 00 00 00 DA 00 00 00 
50953.279500 1 268 Rx d 7 7A C7 00 00 00 00 00 
50953.281100 1 18FF6C27x Rx d 8 0D FF 00 00 00 00 00 00 
50953.283600 1 066 Rx d 8 05 00 00 00 00 00 00 00 
50953.283800 1 18FF1027x Rx d 5 00 00 00 00 00 
50953.284100 1 18FF1727x Rx d 8 00 00 00 00 41 10 00 00 
50953.284400 1 18FF8379x Rx d 8 29 01 00 00 00 00 00 00 
50953.284700 1 27F72B6x Rx d 8 16 00 00 00 00 00 00 00 
50953.285000 1 18FF2013x Rx d 8 04 E0 00 08 00 78 00 00 
50953.285300 1 18FFA413x Rx d 8 1C FF 18 01 07 00 00 00 
50953.286300 1 18FF6A27x Rx d 8 00 00 00 F0 00 F0 00 06 
50953.286600 1 18FEF71Ex Rx d 8 00 00 00 00 DA 00 00 00 
50953.286900 1 18FF8427x Rx d 8 07 00 0A 07 00 E5 07 00 
50953.289400 1 268 Rx d 7 7B C7 00 00 00 00 00 
50953.291100 1 18FF6E27x Rx d 8 00 00 00 00 00 00 00 00 
50953.293600 1 18FF1027x Rx d 5 00 00 00 00 00 
50953.293900 1 18FF1727x Rx d 8 00 00 00 00 41 10 00 00 
50953.294100 1 C01FEFEx Rx d 8 04 00 00 00 00 00 00 00 
50953.294400 1 18FF8379x Rx d 8 0A 00 00 00 00 00 00 00 
50953.296400 1 18FF6B27x Rx d 8 00 00 00 00 00 00 00 00 
50953.296700 1 18FF2027x Rx d 8 00 11 00 0E 06 00 00 00 
50953.297000 1 18FFA527x Rx d 8 02 00 00 00 00 00 00 00 
50953.297300 1 18FEF71Ex Rx d 8 00 00 00 00 DB 00 00 00 
50953.297600 1 18FF8427x Rx d 8 07 00 0A 07 00 E5 07 00 
50953.299400 1 268 Rx d 7 7C C7 00 00 00 00 00 
50953.301100 1 18FF6827x Rx d 8 00 00 00 00 00 00 01 01 
50953.303500 1 18FF1027x Rx d 5 00 00 00 00 00 
50953.303800 1 18FF1727x Rx d 8 00 00 00 00 41 10 00 00 
50953.304100 1 18FF8379x Rx d 8 0B 00 00 00 40 08 00 00 
50953.306300 1 18FF6927x Rx d 8 FF 00 06 00 00 00 00 00 
50953.306600 1 18FEF71Ex Rx d 8 00 00 00 00 DB 00 00 00 
50953.306900 1 18FF8427x Rx d 8 07 00 0A 07 00 E5 07 00 
50953.309500 1 268 Rx d 7 7D C7 00 00 00 00 00 
50953.311100 1 18FF6C27x Rx d 8 0D FF 00 00 00 00 00 00 
50953.313600 1 066 Rx d 8 06 00 00 00 00 00 00 00 
50953.313800 1 18FF1027x Rx d 5 00 00 00 00 00 
50953.314100 1 18FF1727x Rx d 8 00 00 00 00 41 10 00 00 
50953.314400 1 18FF8379x Rx d 8 3C 1F B2 76 F2 38 40 10 
50953.314700 1 27F72B6x Rx d 8 27 00 00 00 00 00 00 00 
50953.315000 1 18FF2013x Rx d 8 04 E0 00 08 00 08 00 00 
50953.315200 1 18FFA413x Rx d 8 1C FF 18 01 00 00 00 00 
50953.317100 1 18FF6A27x Rx d 8 00 00 00 F0 00 F0 00 06 
50953.317300 1 18FF6D27x Rx d 8 04 50 58 52 09 21 04 01 
50953.317600 1 18FF8427x Rx d 8 07 00 0A 07 00 E5 07 00 
50953.317900 1 086 Rx d 8 00 00 00 00 00 00 00 00 
50953.318100 1 CFF1227x Rx d 8 00 D0 07 00 00 00 00 00 
50953.318400 1 CF11227x Rx d 8 00 34 08 00 00 00 00 00 
50953.318700 1 C00F327x Rx d 8 80 02 39 3A 28 28 80 13 
50953.319000 1 18FEF71Ex Rx d 8 00 00 00 00 DB 00 00 00 
50953.319400 1 268 Rx d 7 7E C7 00 00 00 00 00 
50953.321100 1 18FF6E27x Rx d 8 00 00 00 00 00 00 00 00 
50953.323500 1 18FF1027x Rx d 5 00 00 00 00 00 
50953.323800 1 18FF1727x Rx d 8 00 00 00 00 41 10 00 00 
50953.324100 1 18FF8379x Rx d 8 9D 72 62 18 60 02 01 00 
50953.326400 1 18FF6B27x Rx d 8 00 00 00 00 00 00 00 00 
50953.326700 1 18FF2027x Rx d 8 00 11 00 0E 07 00 00 00 
50953.327000 1 18FFA527x Rx d 8 02 00 00 00 00 00 00 00 
50953.327200 1 18FEF71Ex Rx d 8 00 00 00 00 DB 00 00 00 
50953.327500 1 18FF8427x Rx d 8 07 00 0A 07 00 E5 07 00 
50953.329400 1 268 Rx d 7 7F C7 00 00 00 00 00 
50953.331100 1 18FF6827x Rx d 8 00 00 00 00 00 00 01 01 
50953.333600 1 18FF1027x Rx d 5 00 00 00 00 00 
50953.333900 1 18FF1727x Rx d 8 00 00 00 00 41 10 00 00 
50953.334200 1 18FF8379x Rx d 8 0E 00 00 D9 04 1B 00 00 
50953.336300 1 18FF6927x Rx d 8 FF 00 06 00 00 00 00 00 
50953.336600 1 18FF8427x Rx d 8 07 00 0A 07 00 E5 07 00 
50953.336900 1 18FEF71Ex Rx d 8 00 00 00 00 DB 00 00 00 
50953.339500 1 268 Rx d 7 80 C7 00 00 00 00 00 
50953.341100 1 18FF6C27x Rx d 8 0D FF 00 00 00 00 00 00 
50953.344300 1 18FF8C13x Rx d 8 0D 00 00 00 00 00 00 00 
50953.345400 1 066 Rx d 8 07 00 00 00 00 00 00 00 
50953.345900 1 18FF1027x Rx d 5 00 00 00 00 00 
50953.346200 1 18FF1727x Rx d 8 00 00 00 00 41 10 00 00 
50953.346300 1 A100101x Rx d 1 E3 
50953.346600 1 18FEF71Ex Rx d 8 00 00 00 00 DB 00 00 00 
50953.346900 1 A100100x Rx d 8 E3 04 00 0B 05 00 02 05 
50953.347200 1 18FF5838x Rx d 8 06 00 00 00 37 00 00 00 
50953.347500 1 7149Ax Rx d 8 00 00 00 00 00 00 00 00 
50953.347700 1 069 Rx d 8 00 00 00 00 00 00 00 00 
50953.348000 1 C01FEFEx Rx d 8 04 00 00 00 00 00 00 00 
50953.348300 1 18FF6A27x Rx d 8 00 00 00 F0 00 F0 00 06 
50953.348600 1 18FF8379x Rx d 8 10 00 00 00 40 40 40 00 
50953.348900 1 18FF8427x Rx d 8 07 00 0A 07 00 E5 07 00 
50953.349200 1 18FF8479x Rx d 8 01 00 00 00 00 00 00 00 
50953.349500 1 27F72BAx Rx d 8 1C 40 05 18 0B 04 00 00 
50953.349700 1 27F72B6x Rx d 8 08 00 00 00 00 00 00 00 
50953.350000 1 400 Rx d 8 00 00 00 00 00 00 00 00 
50953.350300 1 18FF2013x Rx d 8 04 E0 00 08 00 18 00 00 
50953.350500 1 268 Rx d 7 81 C7 00 00 00 00 00 
50953.350800 1 18FFA413x Rx d 8 1C FF 18 01 01 00 00 00 
50953.351200 1 18FF6E27x Rx d 8 00 00 00 00 00 00 00 00 
50953.353500 1 18FF1027x Rx d 5 00 00 00 00 00 
50953.353800 1 18FF1727x Rx d 8 00 00 00 00 41 10 00 00 
50953.354100 1 18FF8379x Rx d 8 01 00 00 00 00 00 00 00 
50953.356400 1 18FF6B27x Rx d 8 00 00 00 00 00 00 00 00 
50953.356700 1 18FF2027x Rx d 8 00 11 00 0E 00 00 00 00 
50953.357000 1 18FFA527x Rx d 8 02 00 00 00 00 00 00 00 
50953.357300 1 18FECA18x Rx d 8 00 FF 52 46 04 7E FF FF 
50953.357600 1 18FEF71Ex Rx d 8 00 00 00 00 DB 00 00 00 
50953.357800 1 18FF8427x Rx d 8 07 00 0A 07 00 E5 07 00 
50953.359400 1 268 Rx d 7 82 C7 00 00 00 00 00 
50953.361100 1 18FF6827x Rx d 8 00 00 00 00 00 00 01 01 
50953.363500 1 18FF1027x Rx d 5 00 00 00 00 00 
50953.363800 1 18FF1727x Rx d 8 00 00 00 00 41 10 00 00 
50953.364100 1 18FF8379x Rx d 8 02 00 00 00 40 00 00 00 
50953.366500 1 18FF6927x Rx d 8 FF 00 06 00 00 00 00 00 
50953.366800 1 18FEF71Ex Rx d 8 00 00 00 00 DC 00 00 00 
50953.367100 1 18FF8427x Rx d 8 07 00 0A 07 00 E5 07 00 
50953.369500 1 268 Rx d 7 83 C7 00 00 00 00 00 
50953.370000 1 C0027F3x Rx d 8 08 D0 07 7D 00 10 28 F4 
50953.370300 1 182027F3x Rx d 8 A1 00 00 00 E6 00 82 00 
50953.370600 1 182127F3x Rx d 8 BC 1B 3C 0F 64 0A 63 00 
50953.370900 1 182227F3x Rx d 8 08 00 00 7D 00 7D 00 00 
50953.371200 1 182327F3x Rx d 8 A8 00 9E 16 CA 03 02 00 
50953.371400 1 182627F3x Rx d 8 5E 15 8C 00 00 7D 00 7D 
50953.371700 1 101027F3x Rx d 8 00 00 20 21 00 20 00 00 
50953.372000 1 10000111x Rx d 8 6C 6C 6C 6C 6C 6C 01 40 
50953.372300 1 18FF6C27x Rx d 8 0D FF 00 00 00 00 00 00 
50953.373600 1 066 Rx d 8 00 00 00 00 00 00 00 00 
50953.373900 1 18FF1027x Rx d 5 00 00 00 00 00 
50953.374200 1 18FF1727x Rx d 8 00 00 00 00 41 10 00 00 
50953.374400 1 18FF8379x Rx d 8 03 00 20 00 00 00 00 00 
50953.374700 1 27F72B6x Rx d 8 30 00 00 00 00 00 00 00 
50953.375000 1 18FF2013x Rx d 8 04 E0 00 08 00 28 00 00 
50953.375300 1 18FFA413x Rx d 8 1C FF 18 01 02 00 00 00 
50953.376300 1 18FF6A27x Rx d 8 00 00 00 F0 00 F0 00 06 
50953.376600 1 18FF8427x Rx d 8 07 00 0A 07 00 E5 07 00 
50953.376900 1 18FEF71Ex Rx d 8 00 00 00 00 DC 00 00 00 
50953.379400 1 268 Rx d 7 84 C7 00 00 00 00 00 
50953.381100 1 18FF6E27x Rx d 8 00 00 00 00 00 00 00 00 
50953.383600 1 18FF1027x Rx d 5 00 00 00 00 00 
50953.383800 1 18FF1727x Rx d 8 00 00 00 00 41 10 00 00 
50953.384100 1 18FF8379x Rx d 8 04 00 00 00 00 00 00 00 
50953.386300 1 18FF6B27x Rx d 8 00 00 00 00 00 00 00 00 
50953.386600 1 18FF2027x Rx d 8 00 11 00 0E 01 00 00 00 
50953.386900 1 18FFA527x Rx d 8 02 00 00 00 00 00 00 00 
50953.387200 1 18FEF71Ex Rx d 8 00 00 00 00 DC 00 00 00 
50953.387500 1 18FF8427x Rx d 8 07 00 0A 07 00 E5 07 00 
50953.389400 1 268 Rx d 7 85 C7 00 00 00 00 00 
50953.391100 1 18FF6827x Rx d 8 00 00 00 00 00 00 01 01 
50953.393500 1 18FF1027x Rx d 5 00 00 00 00 00 
50953.393800 1 18FF1727x Rx d 8 00 00 00 00 41 10 00 00 
50953.394100 1 C01FEFEx Rx d 8 04 00 00 00 00 00 00 00 
50953.394400 1 18FF8379x Rx d 8 45 00 00 0E 00 00 10 02 
50953.396300 1 18FF6927x Rx d 8 FF 00 06 00 00 00 00 00 
50953.396600 1 18FF8427x Rx d 8 07 00 0A 07 00 E5 07 00 
50953.396900 1 18FEF71Ex Rx d 8 00 00 00 00 DC 00 00 00 
50953.399500 1 268 Rx d 7 86 C7 00 00 00 00 00 
50953.401100 1 18FF6C27x Rx d 8 0D FF 00 00 00 00 00 00 
50953.403600 1 066 Rx d 8 01 00 00 00 00 00 00 00 
50953.403800 1 18FF1027x Rx d 5 00 00 00 00 00 
50953.404100 1 18FF1727x Rx d 8 00 00 00 00 41 10 00 00 
50953.404400 1 18FF8379x Rx d 8 06 00 00 00 00 00 00 00 
50953.404700 1 27F72B6x Rx d 8 41 00 00 00 00 00 00 00 
50953.405000 1 18FF2013x Rx d 8 04 E0 00 08 00 38 00 00 
50953.405300 1 18FFA413x Rx d 8 1C FF 18 01 03 00 00 00 
50953.406300 1 18FF6A27x Rx d 8 00 00 00 F0 00 F0 00 06 
50953.406600 1 18FEF71Ex Rx d 8 00 00 00 00 DC 00 00 00 
50953.406900 1 18FF8427x Rx d 8 07 00 0A 07 00 E5 07 00 
50953.409400 1 268 Rx d 7 87 C7 00 00 00 00 00 
50953.411100 1 18FF6E27x Rx d 8 00 00 00 00 00 00 00 00 
50953.413600 1 18FF1027x Rx d 5 00 00 00 00 00 
50953.413900 1 18FF1727x Rx d 8 00 00 00 00 41 10 00 00 
50953.414200 1 18FF8379x Rx d 8 07 10 00 00 50 00 00 00 
50953.417100 1 18FF6B27x Rx d 8 00 00 00 00 00 00 00 00 
50953.417400 1 18FF6D27x Rx d 8 04 50 60 52 09 21 04 01 
50953.417600 1 086 Rx d 8 00 00 00 00 00 00 00 00 
50953.417900 1 CFF1227x Rx d 8 00 D0 07 00 00 00 00 00 
50953.418200 1 CF11227x Rx d 8 00 34 08 00 00 00 00 00 
50953.418500 1 C00F327x Rx d 8 80 02 39 3A 28 28 C0 13 
50953.418800 1 18FF2027x Rx d 8 00 11 00 0E 02 00 00 00 
50953.419100 1 18FFA527x Rx d 8 02 00 00 00 00 00 00 00 
50953.419300 1 18FEF71Ex Rx d 8 00 00 00 00 DC 00 00 00 
50953.419600 1 268 Rx d 7 88 C7 00 00 00 00 00 
50953.419800 1 18FF8427x Rx d 8 07 00 0A 07 00 E5 07 00 
50953.421100 1 18FF6827x Rx d 8 00 00 00 00 00 00 01 01 
50953.423600 1 18FF1027x Rx d 5 00 00 00 00 00 
50953.423900 1 18FF1727x Rx d 8 00 00 00 00 41 10 00 00 
50953.424200 1 18FF8379x Rx d 8 18 80 00 00 10 00 00 00 
50953.426300 1 18FF6927x Rx d 8 FF 00 06 00 00 00 00 00 
50953.426600 1 18FEF71Ex Rx d 8 00 00 00 00 DC 00 00 00 
50953.426900 1 18FF8427x Rx d 8 07 00 0A 07 00 E5 07 00 
50953.429500 1 268 Rx d 7 89 C7 00 00 00 00 00 
50953.431100 1 18FF6C27x Rx d 8 0D FF 00 00 00 00 00 00 
50953.433600 1 066 Rx d 8 02 00 00 00 00 00 00 00 
50953.433800 1 18FF1027x Rx d 5 00 00 00 00 00 
50953.434100 1 18FF1727x Rx d 8 00 00 00 00 41 10 00 00 
50953.434400 1 18FF8379x Rx d 8 29 01 00 00 00 00 00 00 
50953.434700 1 27F72B6x Rx d 8 02 00 00 00 00 00 00 00 
50953.435000 1 18FF2013x Rx d 8 04 E0 00 08 00 48 00 00 
50953.435300 1 18FFA413x Rx d 8 1C FF 18 01 04 00 00 00 
50953.436300 1 18FF6A27x Rx d 8 00 00 00 F0 00 F0 00 06 
50953.436600 1 18FF8427x Rx d 8 07 00 0A 07 00 E5 07 00 
50953.436900 1 18FEF71Ex Rx d 8 00 00 00 00 DC 00 00 00 
50953.439400 1 268 Rx d 7 8A C7 00 00 00 00 00 
50953.441100 1 18FF6E27x Rx d 8 00 00 00 00 00 00 00 00 
50953.444300 1 18FF8C13x Rx d 8 0D 00 00 00 00 00 00 00 
50953.445800 1 18FF1027x Rx d 5 00 00 00 00 00 
50953.446100 1 18FF1727x Rx d 8 00 00 00 00 41 10 00 00 
50953.446400 1 18FF6B27x Rx d 8 00 00 00 00 00 00 00 00 
50953.446700 1 18FF2027x Rx d 8 00 11 00 0E 03 00 00 00 
50953.447000 1 18FF5838x Rx d 8 06 00 00 00 37 00 00 00 
50953.447300 1 7149Ax Rx d 8 00 00 00 00 00 00 00 00 
50953.447500 1 069 Rx d 8 00 00 00 00 00 00 00 00 
50953.447800 1 C01FEFEx Rx d 8 04 00 00 00 00 00 00 00 
50953.448100 1 18FF8379x Rx d 8 0A 00 00 00 00 00 00 00 
50953.448400 1 18FF8479x Rx d 8 01 00 00 00 00 00 00 00 
50953.448700 1 27F72BAx Rx d 8 E5 1F 00 00 00 00 00 00 
50953.449000 1 18FFA527x Rx d 8 02 00 00 00 00 00 00 00 
50953.449200 1 400 Rx d 8 00 00 00 00 00 00 00 00 
50953.449500 1 18FEF71Ex Rx d 8 00 00 00 00 DC 00 00 00 
50953.449800 1 268 Rx d 7 8B C7 00 00 00 00 00 
50953.450100 1 18FF8427x Rx d 8 07 00 0A 07 00 E5 07 00 
50953.451100 1 18FF6827x Rx d 8 00 00 00 00 00 00 01 01 
50953.453600 1 18FF1027x Rx d 5 00 00 00 00 00 
50953.453900 1 18FF1727x Rx d 8 00 00 00 00 41 10 00 00 
50953.454200 1 18FF8379x Rx d 8 0B 00 00 00 40 08 00 00 
50953.456100 1 A100101x Rx d 1 E5 
50953.456400 1 18FF6927x Rx d 8 FF 00 06 00 00 00 00 00 
50953.456700 1 A100100x Rx d 8 E5 04 00 00 00 00 00 00 
50953.456900 1 18FEF71Ex Rx d 8 00 00 00 00 DC 00 00 00 
50953.457200 1 18FF8427x Rx d 8 07 00 0A 07 00 E5 07 00 
50953.459600 1 268 Rx d 7 8C C7 00 00 00 00 00 
50953.461100 1 18FF6C27x Rx d 8 0D FF 00 00 00 00 00 00 
50953.463600 1 066 Rx d 8 03 00 00 00 00 00 00 00 
50953.463900 1 18FF1027x Rx d 5 00 00 00 00 00 
50953.464200 1 18FF1727x Rx d 8 00 00 00 00 41 10 00 00 
50953.464400 1 18FF8379x Rx d 8 3C 5A B2 B3 F2 38 40 10 
50953.464700 1 27F72B6x Rx d 8 13 00 00 00 00 00 00 00 
50953.465000 1 18FF2013x Rx d 8 04 E0 00 08 00 58 00 00 
50953.465300 1 18FFA413x Rx d 8 1C FF 18 01 05 00 00 00 
50953.466500 1 18FF6A27x Rx d 8 00 00 00 F0 00 F0 00 06 
50953.466800 1 18FEF71Ex Rx d 8 00 00 00 00 DD 00 00 00 
50953.467100 1 18FF8427x Rx d 8 07 00 0A 07 00 E5 07 00 
50953.469500 1 268 Rx d 7 8D C7 00 00 00 00 00 
50953.470000 1 C0027F3x Rx d 8 08 D0 07 7D 00 10 28 F5 
50953.470300 1 182027F3x Rx d 8 A1 00 00 00 E6 00 82 00 
50953.470600 1 182127F3x Rx d 8 BC 1B 3C 0F 64 0A 63 00 
50953.470900 1 182227F3x Rx d 8 08 00 00 7D 00 7D 00 00 
50953.471200 1 182327F3x Rx d 8 A8 00 9E 16 CA 03 02 00 
50953.471400 1 182627F3x Rx d 8 5E 15 82 00 00 7D 00 7D 
50953.471700 1 101027F3x Rx d 8 00 00 20 21 00 20 00 00 
50953.472000 1 10000111x Rx d 8 6C 6C 6C 6C 6C 6C 01 40 
50953.472300 1 18FF6E27x Rx d 8 00 00 00 00 00 00 00 00 
50953.473600 1 18FF1027x Rx d 5 00 00 00 00 00 
50953.473900 1 18FF1727x Rx d 8 00 00 00 00 41 10 00 00 
50953.474100 1 18FF8379x Rx d 8 9D AD 62 18 60 02 01 00 
50953.476100 1 A100101x Rx d 1 E5 
50953.476400 1 18FF6B27x Rx d 8 00 00 00 00 00 00 00 00 
50953.476700 1 A100100x Rx d 8 E5 04 00 00 00 00 00 00 
50953.477000 1 18FF2027x Rx d 8 00 11 00 0E 04 00 00 00 
50953.477300 1 18FFA527x Rx d 8 02 00 00 00 00 00 00 00 
50953.477600 1 18FEF71Ex Rx d 8 00 00 00 00 DC 00 00 00 
50953.477900 1 18FF8427x Rx d 8 07 00 0A 07 00 E5 07 00 
50953.479400 1 268 Rx d 7 8E C7 00 00 00 00 00 
50953.481200 1 18FF6827x Rx d 8 00 00 00 00 00 00 01 01 
50953.483500 1 18FF1027x Rx d 5 00 00 00 00 00 
50953.483800 1 18FF1727x Rx d 8 00 00 00 00 41 10 00 00 
50953.484100 1 18FF8379x Rx d 8 0E 00 00 4F 05 1B 00 00 
50953.486300 1 18FF6927x Rx d 8 FF 00 06 00 00 00 00 00 
50953.486600 1 18FEF71Ex Rx d 8 00 00 00 00 DC 00 00 00 
50953.486900 1 18FF8427x Rx d 8 07 00 0A 07 00 E5 07 00 
50953.489500 1 268 Rx d 7 8F C7 00 00 00 00 00 
50953.491100 1 18FF6C27x Rx d 8 0D FF 00 00 00 00 00 00 
50953.493700 1 066 Rx d 8 04 00 00 00 00 00 00 00 
50953.493900 1 18FF1027x Rx d 5 00 00 00 00 00 
50953.494200 1 18FF1727x Rx d 8 00 00 00 00 41 10 00 00 
50953.494500 1 C01FEFEx Rx d 8 04 00 00 00 00 00 00 00 
50953.494800 1 18FF8379x Rx d 8 10 00 00 00 40 40 40 00 
50953.495100 1 27F72B6x Rx d 8 14 00 00 00 00 00 00 00 
50953.495400 1 18FF2013x Rx d 8 04 E0 00 08 00 68 00 00 
50953.495700 1 18FFA413x Rx d 8 1C FF 18 01 06 00 00 00 
50953.496100 1 A100101x Rx d 1 E5 
50953.496300 1 18FF6A27x Rx d 8 00 00 00 F0 00 F0 00 06 
50953.496600 1 A100100x Rx d 8 E5 04 00 00 00 00 00 00 
50953.496900 1 18FEF71Ex Rx d 8 00 00 00 00 DC 00 00 00 
50953.497200 1 18FF8427x Rx d 8 07 00 0A 07 00 E5 07 00 
50953.499500 1 268 Rx d 7 90 C7 00 00 00 00 00 
50953.501100 1 18FF6E27x Rx d 8 00 00 00 00 00 00 00 00 
50953.503600 1 18FF1027x Rx d 5 00 00 00 00 00 
50953.503900 1 18FF1727x Rx d 8 00 00 00 00 41 10 00 00 
50953.504200 1 18FF8379x Rx d 8 01 00 00 00 00 00 00 00 
50953.506400 1 18FF6B27x Rx d 8 00 00 00 00 00 00 00 00 
50953.506700 1 18FF2027x Rx d 8 00 11 00 0E 05 00 00 00 
50953.506900 1 18FFA527x Rx d 8 02 00 00 00 00 00 00 00 
50953.507200 1 18FEF71Ex Rx d 8 00 00 00 00 DC 00 00 00 
50953.507500 1 18FF8427x Rx d 8 07 00 0A 07 00 E5 07 00 
50953.509400 1 268 Rx d 7 91 C7 00 00 00 00 00 
50953.511100 1 18FF6827x Rx d 8 00 00 00 00 00 00 01 01 
50953.513600 1 18FF1027x Rx d 5 00 00 00 00 00 
50953.513800 1 18FF1727x Rx d 8 00 00 00 00 41 10 00 00 
50953.514100 1 18FF8379x Rx d 8 02 00 00 00 40 00 00 00 
50953.516600 1 A100101x Rx d 1 E5 
50953.517000 1 A100100x Rx d 8 E5 04 00 00 00 00 00 00 
50953.517300 1 18FF6927x Rx d 8 FF 00 06 00 00 00 00 00 
50953.517500 1 18FF6D27x Rx d 8 04 50 64 52 09 21 04 01 
50953.517800 1 086 Rx d 8 00 00 00 00 00 00 00 00 
50953.518100 1 CFF1227x Rx d 8 00 D0 07 00 00 00 00 00 
50953.518400 1 CF11227x Rx d 8 00 34 08 00 00 00 00 00 
50953.518700 1 C00F327x Rx d 8 80 02 39 3A 28 28 00 14 
50953.519000 1 18FEF71Ex Rx d 8 00 00 00 00 DD 00 00 00 
50953.519200 1 18FF8227x Rx d 8 0D 00 01 6D 00 02 01 00 
50953.519500 1 268 Rx d 7 92 C7 00 00 00 00 00 
50953.521100 1 18FF6C27x Rx d 8 0D FF 00 00 00 00 00 00 
50953.523600 1 066 Rx d 8 05 00 00 00 00 00 00 00 
50953.523900 1 18FF1027x Rx d 5 00 00 00 00 00 
50953.524200 1 18FF1727x Rx d 8 00 00 00 00 41 10 00 00 
50953.524500 1 18FF8379x Rx d 8 03 00 20 00 00 00 00 00 
50953.524800 1 27F72B6x Rx d 8 05 00 00 00 00 00 00 00 
50953.525000 1 18FF2013x Rx d 8 04 E0 00 08 00 78 00 00 
50953.525300 1 18FFA413x Rx d 8 1C FF 18 01 07 00 00 00 
50953.526300 1 18FF6A27x Rx d 8 00 00 00 F0 00 F0 00 06 
50953.526600 1 18FEF71Ex Rx d 8 00 00 00 00 DD 00 00 00 
50953.526900 1 18FF8227x Rx d 8 0D 00 01 6D 00 02 01 00 
50953.529400 1 268 Rx d 7 93 C7 00 00 00 00 00 
50953.531200 1 18FF6E27x Rx d 8 00 00 00 00 00 00 00 00 
50953.533600 1 18FF1027x Rx d 5 00 00 00 00 00 
50953.533900 1 18FF1727x Rx d 8 00 00 00 00 41 10 00 00 
50953.534200 1 18FF8379x Rx d 8 04 00 00 00 00 00 00 00 
50953.536100 1 A100101x Rx d 1 E5 
50953.536400 1 18FF6B27x Rx d 8 00 00 00 00 00 00 00 00 
50953.536700 1 A100100x Rx d 8 E5 04 00 00 00 00 00 00 
50953.537000 1 18FF2027x Rx d 8 00 11 00 0E 06 00 00 00 
50953.537300 1 18FFA527x Rx d 8 02 00 00 00 00 00 00 00 
50953.537600 1 18FEF71Ex Rx d 8 00 00 00 00 DD 00 00 00 
50953.537900 1 18FF8227x Rx d 8 0D 00 01 6D 00 02 01 00 
50953.539400 1 268 Rx d 7 94 C7 00 00 00 00 00 
50953.541100 1 18FF6827x Rx d 8 00 00 00 00 00 00 01 01 
50953.543400 1 18FF2745x Rx d 8 39 3A 00 FF 8C 00 00 9D 
50953.544300 1 18FF8C13x Rx d 8 0D 00 00 00 00 00 00 00 
50953.545900 1 18FF1027x Rx d 5 00 00 00 00 00 
50953.546200 1 18FF1727x Rx d 8 00 00 00 00 41 10 00 00 
50953.546500 1 18FF6927x Rx d 8 FF 00 06 00 00 00 00 00 
50953.546700 1 18FEF71Ex Rx d 8 00 00 00 00 DD 00 00 00 
50953.547000 1 18FF5838x Rx d 8 06 00 00 00 37 00 00 00 
50953.547300 1 7149Ax Rx d 8 00 00 00 00 00 00 00 00 
50953.547600 1 069 Rx d 8 00 00 00 00 00 00 00 00 
50953.547900 1 C01FEFEx Rx d 8 04 00 00 00 00 00 00 00 
50953.548100 1 18FF8227x Rx d 8 0D 00 01 6D 00 02 01 00 
50953.548400 1 18FF8379x Rx d 8 45 00 00 0E 00 00 10 02 
50953.548700 1 18FF8479x Rx d 8 01 00 00 00 00 00 00 00 
50953.549000 1 27F72BAx Rx d 8 E6 1F 00 00 00 00 00 00 
50953.549300 1 400 Rx d 8 00 00 00 00 00 00 00 00 
50953.549600 1 268 Rx d 7 95 C7 00 00 00 00 00 
50953.551100 1 18FF6C27x Rx d 8 0D FF 00 00 00 00 00 00 
50953.553600 1 066 Rx d 8 06 00 00 00 00 00 00 00 
50953.553900 1 18FF1027x Rx d 5 00 00 00 00 00 
50953.554200 1 18FF1727x Rx d 8 00 00 00 00 41 10 00 00 
50953.554500 1 18FF8379x Rx d 8 06 00 00 00 00 00 00 00 
50953.554800 1 27F72B6x Rx d 8 16 00 00 00 00 00 00 00 
50953.555000 1 18FF2013x Rx d 8 04 E0 00 08 00 08 00 00 
50953.555300 1 18FFA413x Rx d 8 1C FF 18 01 00 00 00 00 
50953.556300 1 18FF6A27x Rx d 8 00 00 00 F0 00 F0 00 06 
50953.556600 1 18FF8227x Rx d 8 0D 00 01 6D 00 02 01 00 
50953.556900 1 18FEF71Ex Rx d 8 00 00 00 00 DD 00 00 00 
50953.559400 1 268 Rx d 7 96 C7 00 00 00 00 00 
50953.561200 1 18FF6E27x Rx d 8 00 00 00 00 00 00 00 00 
50953.563600 1 18FF1027x Rx d 5 00 00 00 00 00 
50953.563900 1 18FF1727x Rx d 8 00 00 00 00 41 10 00 00 
50953.564200 1 18FF8379x Rx d 8 07 10 00 00 50 00 00 00 
50953.566600 1 18FF6B27x Rx d 8 00 00 00 00 00 00 00 00 
50953.566800 1 18FF2027x Rx d 8 00 11 00 0E 07 00 00 00 
50953.567100 1 18FFA527x Rx d 8 02 00 00 00 00 00 00 00 
50953.567400 1 18FEF71Ex Rx d 8 00 00 00 00 DD 00 00 00 
50953.567700 1 18FF8327x Rx d 8 AD 00 0C 00 00 00 00 00 
50953.569400 1 268 Rx d 7 97 C7 00 00 00 00 00 
50953.570100 1 C0027F3x Rx d 8 08 D0 07 7D 00 10 28 F6 
50953.570300 1 182027F3x Rx d 8 A1 00 00 00 E6 00 82 00 
50953.570600 1 182127F3x Rx d 8 BC 1B 3C 0F 64 0A 63 00 
50953.570900 1 182227F3x Rx d 8 08 00 00 7D 00 7D 00 00 
50953.571200 1 182327F3x Rx d 8 A8 00 9E 16 CA 03 02 00 
50953.571400 1 182627F3x Rx d 8 5E 15 82 00 00 7D 00 7D 
50953.571700 1 101027F3x Rx d 8 00 00 20 21 00 20 00 00 
50953.572000 1 10000111x Rx d 8 6C 6C 6C 6C 6C 6C 00 40 
50953.572300 1 18FF6827x Rx d 8 00 00 00 00 00 00 01 01 
50953.573700 1 18FF1027x Rx d 5 00 00 00 00 00 
50953.573900 1 18FF1727x Rx d 8 00 00 00 00 41 10 00 00 
50953.574200 1 18FF8379x Rx d 8 18 80 00 00 10 00 00 00 
50953.576300 1 18FF6927x Rx d 8 FF 00 06 00 00 00 00 00 
50953.576600 1 18FF8327x Rx d 8 AD 00 0C 00 00 00 00 00 
50953.576900 1 18FEF71Ex Rx d 8 00 00 00 00 DD 00 00 00 
50953.579500 1 268 Rx d 7 98 C7 00 00 00 00 00 
50953.581100 1 18FF6C27x Rx d 8 0D FF 00 00 00 00 00 00 
50953.583700 1 066 Rx d 8 07 00 00 00 00 00 00 00 
50953.583900 1 18FF1027x Rx d 5 00 00 00 00 00 
50953.584200 1 18FF1727x Rx d 8 00 00 00 00 41 10 00 00 
50953.584500 1 18FF8379x Rx d 8 29 01 00 00 00 00 00 00 
50953.584800 1 27F72B6x Rx d 8 27 00 00 00 00 00 00 00 
50953.585000 1 18FF2013x Rx d 8 04 E0 00 08 00 18 00 00 
50953.585300 1 18FFA413x Rx d 8 1C FF 18 01 01 00 00 00 
50953.586300 1 18FF6A27x Rx d 8 00 00 00 F0 00 F0 00 06 
50953.586600 1 18FEF71Ex Rx d 8 00 00 00 00 DD 00 00 00 
50953.586900 1 18FF8327x Rx d 8 AD 00 0C 00 00 00 00 00 
50953.589400 1 268 Rx d 7 99 C7 00 00 00 00 00 
50953.591100 1 18FF6E27x Rx d 8 00 00 00 00 00 00 00 00 
50953.593600 1 18FF1027x Rx d 5 00 00 00 00 00 
50953.593900 1 18FF1727x Rx d 8 00 00 00 00 41 10 00 00 
50953.594200 1 C01FEFEx Rx d 8 04 00 00 00 00 00 00 00 
50953.594500 1 18FF8379x Rx d 8 0A 00 00 00 00 00 00 00 
50953.596400 1 18FF6B27x Rx d 8 00 00 00 00 00 00 00 00 
50953.596700 1 18FF2027x Rx d 8 00 11 00 0E 00 00 00 00 
50953.597000 1 18FFA527x Rx d 8 02 00 00 00 00 00 00 00 
50953.597300 1 18FEF71Ex Rx d 8 00 00 00 00 D8 00 00 00 
50953.597600 1 18FF8327x Rx d 8 AD 00 0C 00 00 00 00 00 
50953.599400 1 268 Rx d 7 9A C7 00 00 00 00 00 
50953.601100 1 18FF6827x Rx d 8 00 00 00 00 00 00 01 01 
50953.603600 1 18FF1027x Rx d 5 00 00 00 00 00 
50953.603900 1 18FF1727x Rx d 8 00 00 00 00 41 10 00 00 
50953.604200 1 18FF8379x Rx d 8 0B 00 00 00 40 08 00 00 
50953.606300 1 18FF6927x Rx d 8 FF 00 06 00 00 00 00 00 
50953.606600 1 18FEF71Ex Rx d 8 00 00 00 00 D4 00 00 00 
50953.606900 1 18FF8327x Rx d 8 AD 00 0C 00 00 00 00 00 
50953.609400 1 268 Rx d 7 9B C7 00 00 00 00 00 
50953.611100 1 18FF6C27x Rx d 8 0D FF 00 00 00 00 00 00 
50953.613700 1 066 Rx d 8 00 00 00 00 00 00 00 00 
50953.613900 1 18FF1027x Rx d 5 00 00 00 00 00 
50953.614200 1 18FF1727x Rx d 8 00 00 00 00 41 10 00 00 
50953.614500 1 18FF8379x Rx d 8 3C 5C C2 B7 F2 38 40 10 
50953.614800 1 27F72B6x Rx d 8 08 00 00 00 00 00 00 00 
50953.615100 1 18FF2013x Rx d 8 04 E0 00 08 00 28 00 00 
50953.615400 1 18FFA413x Rx d 8 1C FF 18 01 02 00 00 00 
50953.617000 1 18FF6A27x Rx d 8 00 00 00 F0 00 F0 00 06 
50953.617300 1 18FF6D27x Rx d 8 04 50 68 52 09 21 04 01 
50953.617600 1 18FF8427x Rx d 8 07 00 0A 07 00 E5 07 00 
50953.617900 1 086 Rx d 8 00 00 00 00 00 00 00 00 
50953.618200 1 CFF1227x Rx d 8 00 D0 07 00 00 00 00 00 
50953.618500 1 CF11227x Rx d 8 00 34 08 00 00 00 00 00 
50953.618700 1 C00F327x Rx d 8 80 02 39 3A 28 28 40 14 
50953.619000 1 18FEF71Ex Rx d 8 00 00 00 00 D1 00 00 00 
50953.619400 1 268 Rx d 7 9C C7 00 00 00 00 00 
50953.621100 1 18FF6E27x Rx d 8 00 00 00 00 00 00 00 00 
50953.623700 1 18FF1027x Rx d 5 00 00 00 00 00 
50953.624000 1 18FF1727x Rx d 8 00 00 00 00 41 10 00 00 
50953.624200 1 18FF8379x Rx d 8 BD B1 62 18 60 02 01 00 
50953.626400 1 18FF6B27x Rx d 8 00 00 00 00 00 00 00 00 
50953.626600 1 18FF2027x Rx d 8 00 11 00 0E 01 00 00 00 
50953.626900 1 18FFA527x Rx d 8 02 00 00 00 00 00 00 00 
50953.627200 1 18FEF71Ex Rx d 8 00 00 00 00 CF 00 00 00 
50953.627500 1 18FF8427x Rx d 8 07 00 0A 07 00 E5 07 00 
50953.629400 1 268 Rx d 7 9D C7 00 00 00 00 00 
50953.631100 1 18FF6827x Rx d 8 00 00 00 00 00 00 01 01 
50953.633600 1 18FF1027x Rx d 5 00 00 00 00 00 
50953.633900 1 18FF1727x Rx d 8 00 00 00 00 41 10 00 00 
50953.634200 1 18FF8379x Rx d 8 0E 00 00 53 05 1B 00 00 
50953.636300 1 18FF6927x Rx d 8 FF 00 06 00 00 00 00 00 
50953.636600 1 18FF8427x Rx d 8 07 00 0A 07 00 E5 07 00 
50953.636900 1 18FEF71Ex Rx d 8 00 00 00 00 CD 00 00 00 
50953.639500 1 268 Rx d 7 9E C7 00 00 00 00 00 
50953.641100 1 18FF6C27x Rx d 8 0D FF 00 00 00 00 00 00 
50953.644400 1 18FF8C13x Rx d 8 0D 00 00 00 00 00 00 00 
50953.645800 1 066 Rx d 8 01 00 00 00 00 00 00 00 
50953.646000 1 18FF1027x Rx d 5 00 00 00 00 00 
50953.646300 1 18FF1727x Rx d 8 00 00 00 00 41 10 00 00 
50953.646600 1 18FF6A27x Rx d 8 00 00 00 F0 00 F0 00 06 
50953.646900 1 18FEF71Ex Rx d 8 00 00 00 00 CC 00 00 00 
50953.647200 1 18FF5838x Rx d 8 06 00 00 00 37 00 00 00 
50953.647500 1 7149Ax Rx d 8 00 00 00 00 00 00 00 00 
50953.647700 1 069 Rx d 8 00 00 00 00 00 00 00 00 
50953.648000 1 C01FEFEx Rx d 8 00 00 00 00 00 00 00 00 
50953.648300 1 18FF8379x Rx d 8 10 00 00 00 40 40 40 00 
50953.648600 1 18FF8427x Rx d 8 07 00 0A 07 00 E5 07 00 
50953.648900 1 18FF8479x Rx d 8 01 00 00 00 00 00 00 00 
50953.649100 1 27F72BAx Rx d 8 28 C0 04 00 00 5C 2E 00 
50953.649400 1 27F72B6x Rx d 8 30 00 00 00 00 00 00 00 
50953.649700 1 400 Rx d 8 00 00 00 00 00 00 00 00 
50953.650000 1 18FF2013x Rx d 8 04 E0 00 08 00 38 00 00 
50953.650200 1 268 Rx d 7 9F C7 00 00 00 00 00 
50953.650500 1 18FFA413x Rx d 8 1C FF 18 01 03 00 00 00 
50953.651100 1 18FF6E27x Rx d 8 00 00 00 00 00 00 00 00 
50953.653700 1 18FF1027x Rx d 5 00 00 00 00 00 
50953.654000 1 18FF1727x Rx d 8 00 00 00 00 41 10 00 00 
50953.654300 1 18FF8379x Rx d 8 01 00 00 00 00 00 00 00 
50953.656100 1 A100101x Rx d 1 E0 
50953.656400 1 18FF6B27x Rx d 8 00 00 00 00 00 00 00 00 
50953.656700 1 A100100x Rx d 8 E0 04 0A 09 04 00 BC 17 
50953.657000 1 18FF2027x Rx d 8 00 11 00 0E 02 00 00 00 
50953.657300 1 18FFA527x Rx d 8 02 00 00 00 00 00 00 00 
50953.657600 1 18FEF71Ex Rx d 8 00 00 00 00 CC 00 00 00 
50953.657900 1 18FF8427x Rx d 8 07 00 0A 07 00 E5 07 00 
50953.659500 1 268 Rx d 7 A0 C7 00 00 00 00 00 
50953.661100 1 18FF6827x Rx d 8 00 00 00 00 00 00 01 01 
50953.663700 1 18FF1027x Rx d 5 00 00 00 00 00 
50953.663900 1 18FF1727x Rx d 8 00 00 00 00 41 10 00 00 
50953.664200 1 18FF8379x Rx d 8 02 00 00 00 40 00 00 00 
50953.666500 1 18FF6927x Rx d 8 FF 00 06 00 00 00 00 00 
50953.666800 1 18FEF71Ex Rx d 8 00 00 00 00 CB 00 00 00 
50953.667100 1 18FF8427x Rx d 8 07 00 0A 07 00 E5 07 00 
50953.669500 1 268 Rx d 7 A1 C7 00 00 00 00 00 
50953.670100 1 C0027F3x Rx d 8 08 D0 07 7D 00 10 28 F7 
50953.670300 1 182027F3x Rx d 8 A1 00 00 00 E6 00 82 00 
50953.670600 1 182127F3x Rx d 8 BC 1B 3C 0F 64 0A 63 00 
50953.670900 1 182227F3x Rx d 8 08 00 00 7D 00 7D 00 00 
50953.671200 1 182327F3x Rx d 8 A8 00 9E 16 CA 03 02 00 
50953.671500 1 182627F3x Rx d 8 5E 15 82 00 00 7D 00 7D 
50953.671700 1 101027F3x Rx d 8 00 00 20 21 00 20 00 00 
50953.672000 1 10000111x Rx d 8 6C 6C 6C 6C 6C 6C 00 40 
50953.672300 1 18FF6C27x Rx d 8 0D FF 00 00 00 00 00 00 
50953.673700 1 066 Rx d 8 02 00 00 00 00 00 00 00 
50953.673900 1 18FF1027x Rx d 5 00 00 00 00 00 
50953.674200 1 18FF1727x Rx d 8 00 00 00 00 41 10 00 00 
50953.674500 1 18FF8379x Rx d 8 03 00 20 00 00 00 00 00 
50953.674800 1 27F72B6x Rx d 8 41 00 00 00 00 00 00 00 
50953.675100 1 18FF2013x Rx d 8 04 E0 00 08 00 48 00 00 
50953.675400 1 18FFA413x Rx d 8 1C FF 18 01 04 00 00 00 
50953.676300 1 18FF6A27x Rx d 8 00 00 00 F0 00 F0 00 06 
50953.676600 1 18FF8427x Rx d 8 07 00 0A 07 00 E5 07 00 
50953.676900 1 18FEF71Ex Rx d 8 00 00 00 00 CB 00 00 00 
50953.679400 1 101227F3x Rx d 8 81 08 0A FF 7B 08 05 8F 
50953.679700 1 268 Rx d 7 A2 C7 00 00 00 00 00 
50953.679900 1 101627F3x Rx d 8 36 09 24 32 17 5C 00 00 
50953.680200 1 182427F3x Rx d 8 07 00 00 15 08 12 00 00 
50953.680500 1 182527F3x Rx d 8 94 01 94 01 00 00 00 00 
50953.681100 1 18FF6E27x Rx d 8 00 00 00 00 00 00 00 00 
50953.683600 1 18FF1027x Rx d 5 00 00 00 00 00 
50953.683900 1 18FF1727x Rx d 8 00 00 00 00 41 10 00 00 
50953.684200 1 18FF8379x Rx d 8 04 00 00 00 00 00 00 00 
50953.686400 1 18FF6B27x Rx d 8 00 00 00 00 00 00 00 00 
50953.686700 1 18FF2027x Rx d 8 00 11 00 0E 03 00 00 00 
50953.686900 1 18FFA527x Rx d 8 02 00 00 00 00 00 00 00 
50953.687200 1 18FEF71Ex Rx d 8 00 00 00 00 CA 00 00 00 
50953.687500 1 18FF8427x Rx d 8 07 00 0A 07 00 E5 07 00 
50953.689400 1 268 Rx d 7 A3 C7 00 00 00 00 00 
50953.691200 1 18FF6827x Rx d 8 00 00 00 00 00 00 01 01 
50953.693700 1 18FF1027x Rx d 5 00 00 00 00 00 
50953.694000 1 18FF1727x Rx d 8 00 00 00 00 41 10 00 00 
50953.694300 1 C01FEFEx Rx d 8 00 00 00 00 00 00 00 00 
50953.694600 1 18FF8379x Rx d 8 05 00 00 0E 00 00 10 02 
50953.696400 1 18FF6927x Rx d 8 FF 00 06 00 00 00 00 00 
50953.696600 1 18FF8427x Rx d 8 07 00 0A 07 00 E5 07 00 
50953.696900 1 18FEF71Ex Rx d 8 00 00 00 00 C9 00 00 00 
50953.699500 1 268 Rx d 7 A4 C7 00 00 00 00 00 
50953.701100 1 18FF6C27x Rx d 8 0D FF 00 00 00 00 00 00 
50953.703700 1 066 Rx d 8 03 00 00 00 00 00 00 00 
50953.704000 1 18FF1027x Rx d 5 00 00 00 00 00 
50953.704200 1 18FF1727x Rx d 8 00 00 00 00 41 10 00 00 
50953.704500 1 18FF8379x Rx d 8 06 00 00 00 00 00 00 00 
50953.704800 1 27F72B6x Rx d 8 02 00 00 00 00 00 00 00 
50953.705100 1 18FF2013x Rx d 8 04 E0 00 08 00 58 00 00 
50953.705400 1 18FFA413x Rx d 8 1C FF 18 01 05 00 00 00 
50953.706300 1 18FF6A27x Rx d 8 00 00 00 F0 00 F0 00 06 
50953.706600 1 18FEF71Ex Rx d 8 00 00 00 00 C8 00 00 00 
50953.706900 1 18FF8427x Rx d 8 07 00 0A 07 00 E5 07 00 
50953.709400 1 268 Rx d 7 A5 C7 00 00 00 00 00 
50953.711100 1 18FF6E27x Rx d 8 00 00 00 00 00 00 00 00 
50953.713600 1 18FF1027x Rx d 5 00 00 00 00 00 
50953.713900 1 18FF1727x Rx d 8 00 00 00 00 41 10 00 00 
50953.714200 1 18FF8379x Rx d 8 07 10 00 00 50 00 00 00 
50953.717200 1 18FF6B27x Rx d 8 00 00 00 00 00 00 00 00 
50953.717500 1 18FF6D27x Rx d 8 04 50 40 52 09 21 04 01 
50953.717800 1 18FF8427x Rx d 8 07 00 0A 07 00 E5 07 00 
50953.718000 1 086 Rx d 8 00 00 00 00 00 00 00 00 
50953.718300 1 CFF1227x Rx d 8 00 D0 07 00 00 00 00 00 
50953.718600 1 CF11227x Rx d 8 00 34 08 00 00 00 00 00 
50953.718900 1 C00F327x Rx d 8 80 02 39 3A 28 28 80 14 
50953.719200 1 18FF4527x Rx d 8 36 32 7F 00 00 28 34 AA 
50953.719500 1 18FF2027x Rx d 8 00 11 00 0E 04 00 00 00 
50953.719700 1 268 Rx d 7 A6 C7 00 00 00 00 00 
50953.720000 1 18FFA527x Rx d 8 02 00 00 00 00 00 00 00 
50953.720300 1 18FEF71Ex Rx d 8 00 00 00 00 C8 00 00 00 
50953.721100 1 18FF6827x Rx d 8 00 00 00 00 00 00 01 01 
50953.723700 1 18FF1027x Rx d 5 00 00 00 00 00 
50953.724000 1 18FF1727x Rx d 8 00 00 00 00 41 10 00 00 
50953.724200 1 18FF8379x Rx d 8 18 80 00 00 10 00 00 00 
50953.726400 1 18FF6927x Rx d 8 FF 00 06 00 00 00 00 00 
50953.726600 1 18FEF71Ex Rx d 8 00 00 00 00 C8 00 00 00 
50953.726900 1 18FF8427x Rx d 8 07 00 0A 07 00 E5 07 00 
50953.729500 1 268 Rx d 7 A7 C7 00 00 00 00 00 
50953.731100 1 18FF6C27x Rx d 8 0D FF 00 00 00 00 00 00 
50953.733700 1 066 Rx d 8 04 00 00 00 00 00 00 00 
50953.733900 1 18FF1027x Rx d 5 00 00 00 00 00 
50953.734200 1 18FF1727x Rx d 8 00 00 00 00 41 10 00 00 
50953.734500 1 18FF8379x Rx d 8 29 01 00 00 00 00 00 00 
50953.734800 1 27F72B6x Rx d 8 13 00 00 00 00 00 00 00 
50953.735100 1 18FF2013x Rx d 8 04 E0 00 08 00 68 00 00 
50953.735400 1 18FFA413x Rx d 8 1C FF 18 01 06 00 00 00 
50953.736300 1 18FF6A27x Rx d 8 00 00 00 F0 00 F0 00 06 
50953.736600 1 18FF8427x Rx d 8 07 00 0A 07 00 E5 07 00 
50953.736900 1 18FEF71Ex Rx d 8 00 00 00 00 C8 00 00 00 
50953.739500 1 268 Rx d 7 A8 C7 00 00 00 00 00 
50953.741200 1 18FF6E27x Rx d 8 00 00 00 00 00 00 00 00 
50953.744400 1 18FF8C13x Rx d 8 0D 00 00 00 00 00 00 00 
50953.746000 1 18FF1027x Rx d 5 00 00 00 00 00 
50953.746200 1 18FF1727x Rx d 8 00 00 00 00 41 10 00 00 
50953.746500 1 18FF6B27x Rx d 8 00 00 00 00 00 00 00 00 
50953.746800 1 18FF2027x Rx d 8 00 11 00 0E 05 00 00 00 
50953.747100 1 18FF5838x Rx d 8 06 00 00 00 37 00 00 00 
50953.747400 1 7149Ax Rx d 8 00 00 00 00 00 00 00 00 
50953.747700 1 069 Rx d 8 00 00 00 00 00 00 00 00 
50953.747900 1 C01FEFEx Rx d 8 04 00 00 00 00 00 00 00 
50953.748200 1 18FF8379x Rx d 8 0A 00 00 00 00 00 00 00 
50953.748500 1 18FF8479x Rx d 8 01 00 00 00 00 00 00 00 
50953.748800 1 27F72BAx Rx d 8 29 40 05 18 0B 00 00 00 
50953.749100 1 18FFA527x Rx d 8 02 00 00 00 00 00 00 00 
50953.749400 1 400 Rx d 8 00 00 00 00 00 00 00 00 
50953.749600 1 18FEF71Ex Rx d 8 00 00 00 00 C8 00 00 00 
50953.749900 1 268 Rx d 7 A9 C7 00 00 00 00 00 
50953.750200 1 18FF8427x Rx d 8 07 00 0A 07 00 E5 07 00 
50953.751100 1 18FF6827x Rx d 8 00 00 00 00 00 00 01 01 
50953.753700 1 18FF1027x Rx d 5 00 00 00 00 00 
50953.754000 1 18FF1727x Rx d 8 00 00 00 00 41 10 00 00 
50953.754200 1 18FF8379x Rx d 8 0B 00 00 00 40 08 00 00 
50953.756300 1 18FF6927x Rx d 8 FF 00 06 00 00 00 00 00 
50953.756600 1 18FF8427x Rx d 8 07 00 0A 07 00 E5 07 00 
50953.756900 1 18FEF71Ex Rx d 8 00 00 00 00 C8 00 00 00 
50953.759500 1 268 Rx d 7 AA C7 00 00 00 00 00 
50953.761100 1 18FF6C27x Rx d 8 0D FF 00 00 00 00 00 00 
50953.763700 1 066 Rx d 8 05 00 00 00 00 00 00 00 
50953.763900 1 18FF1027x Rx d 5 00 00 00 00 00 
50953.764200 1 18FF1727x Rx d 8 00 00 00 00 41 10 00 00 
50953.764500 1 18FF8379x Rx d 8 7C 2D E2 84 F2 38 40 10 
50953.764800 1 27F72B6x Rx d 8 14 00 00 00 00 00 00 00 
50953.765100 1 18FF2013x Rx d 8 04 E0 00 08 00 78 00 00 
50953.765400 1 18FFA413x Rx d 8 1C FF 18 01 07 00 00 00 
50953.766500 1 18FF6A27x Rx d 8 00 00 00 F0 00 F0 00 06 
50953.766800 1 18FEF71Ex Rx d 8 00 00 00 00 C8 00 00 00 
50953.767100 1 18FF8427x Rx d 8 07 00 0A 07 00 E5 07 00 
50953.769400 1 268 Rx d 7 AB C7 00 00 00 00 00 
50953.770100 1 C0027F3x Rx d 8 08 D0 07 7D 00 10 28 F8 
50953.770400 1 182027F3x Rx d 8 A1 00 00 00 E6 00 82 00 
50953.770600 1 182127F3x Rx d 8 BC 1B 3C 0F 64 0A 63 00 
50953.770900 1 182227F3x Rx d 8 08 00 00 7D 00 7D 00 00 
50953.771200 1 182327F3x Rx d 8 A8 00 9E 16 CA 03 02 00 
50953.771500 1 182627F3x Rx d 8 5E 15 82 00 00 7D 00 7D 
50953.771800 1 101027F3x Rx d 8 00 00 20 21 00 20 00 00 
50953.772000 1 10000111x Rx d 8 6C 6C 6C 6C 6C 6C 00 40 
50953.772300 1 18FF6E27x Rx d 8 00 00 00 00 00 00 00 00 
50953.773700 1 18FF1027x Rx d 5 00 00 00 00 00 
50953.774000 1 18FF1727x Rx d 8 00 00 00 00 41 10 00 00 
50953.774300 1 18FF8379x Rx d 8 DD 80 62 18 60 02 01 00 
50953.776400 1 18FF6B27x Rx d 8 00 00 00 00 00 00 00 00 
50953.776700 1 18FF2027x Rx d 8 00 11 00 0E 06 00 00 00 
50953.777000 1 18FFA527x Rx d 8 02 00 00 00 00 00 00 00 
50953.777300 1 18FEF71Ex Rx d 8 00 00 00 00 C8 00 00 00 
50953.777600 1 18FF8427x Rx d 8 07 00 0A 07 00 E5 07 00 
50953.779400 1 268 Rx d 7 AC C7 00 00 00 00 00 
50953.781100 1 18FF6827x Rx d 8 00 00 00 00 00 00 01 01 
50953.783700 1 18FF1027x Rx d 5 00 00 00 00 00 
50953.784000 1 18FF1727x Rx d 8 00 00 00 00 41 10 00 00 
50953.784300 1 18FF8379x Rx d 8 0E 00 80 F5 04 1B 00 00 
50953.786300 1 18FF6927x Rx d 8 FF 00 06 00 00 00 00 00 
50953.786600 1 18FEF71Ex Rx d 8 00 00 00 00 C8 00 00 00 
50953.786900 1 18FF8427x Rx d 8 07 00 0A 07 00 E5 07 00 
50953.789500 1 268 Rx d 7 AD C7 00 00 00 00 00 
50953.791100 1 18FF6C27x Rx d 8 0D FF 00 00 00 00 00 00 
50953.793700 1 066 Rx d 8 06 00 00 00 00 00 00 00 
50953.793900 1 18FF1027x Rx d 5 00 00 00 00 00 
50953.794200 1 18FF1727x Rx d 8 00 00 00 00 41 10 00 00 
50953.794500 1 C01FEFEx Rx d 8 04 00 00 00 00 00 00 00 
50953.794800 1 18FF8379x Rx d 8 10 00 00 00 40 40 40 00 
50953.795100 1 27F72B6x Rx d 8 05 00 00 00 00 00 00 00 
50953.795400 1 18FF2013x Rx d 8 04 E0 00 08 00 08 00 00 
50953.795700 1 18FFA413x Rx d 8 1C FF 18 01 00 00 00 00 
50953.796300 1 18FF6A27x Rx d 8 00 00 00 F0 00 F0 00 06 
50953.796600 1 18FF8427x Rx d 8 07 00 0A 07 00 E5 07 00 
50953.796900 1 18FEF71Ex Rx d 8 00 00 00 00 C8 00 00 00 
50953.799400 1 268 Rx d 7 AE C7 00 00 00 00 00 
50953.801100 1 18FF6E27x Rx d 8 00 00 00 00 00 00 00 00 
50953.803700 1 18FF1027x Rx d 5 00 00 00 00 00 
50953.804000 1 18FF1727x Rx d 8 00 00 00 00 41 10 00 00 
50953.804300 1 18FF8379x Rx d 8 01 00 00 00 00 00 00 00 
50953.806400 1 18FF6B27x Rx d 8 00 00 00 00 00 00 00 00 
50953.806700 1 18FF2027x Rx d 8 00 11 00 0E 07 00 00 00 
50953.806900 1 18FFA527x Rx d 8 02 00 00 00 00 00 00 00 
50953.807200 1 18FEF71Ex Rx d 8 00 00 00 00 C8 00 00 00 
50953.807500 1 18FF8427x Rx d 8 07 00 0A 07 00 E5 07 00 
50953.809400 1 268 Rx d 7 AF C7 00 00 00 00 00 
50953.811100 1 18FF6827x Rx d 8 00 00 00 00 00 00 01 01 
50953.813700 1 18FF1027x Rx d 5 00 00 00 00 00 
50953.814000 1 18FF1727x Rx d 8 00 00 00 00 41 10 00 00 
50953.814300 1 18FF8379x Rx d 8 02 00 00 00 40 00 00 00 
50953.816600 1 A100101x Rx d 1 E1 
50953.817000 1 A100100x Rx d 8 E1 04 07 7A 04 07 78 03 
50953.817300 1 18FF6927x Rx d 8 FF 00 06 00 00 00 00 00 
50953.817500 1 18FF6D27x Rx d 8 04 50 44 52 09 21 04 01 
50953.817800 1 086 Rx d 8 00 00 00 00 00 00 00 00 
50953.818100 1 CFF1227x Rx d 8 00 D0 07 00 00 00 00 00 
50953.818400 1 CF11227x Rx d 8 00 34 08 00 00 00 00 00 
50953.818600 1 C00F327x Rx d 8 80 02 39 3A 28 28 C0 14 
50953.818900 1 18FEF71Ex Rx d 8 00 00 00 00 C8 00 00 00 
50953.819200 1 18FF8427x Rx d 8 07 00 0A 07 00 E5 07 00 
50953.819500 1 268 Rx d 7 B0 C7 00 00 00 00 00 
50953.821200 1 18FF6C27x Rx d 8 0D FF 00 00 00 00 00 00 
50953.823700 1 066 Rx d 8 07 00 00 00 00 00 00 00 
50953.824000 1 18FF1027x Rx d 5 00 00 00 00 00 
50953.824300 1 18FF1727x Rx d 8 00 00 00 00 41 10 00 00 
50953.824600 1 18FF8379x Rx d 8 03 00 20 00 00 00 00 00 
50953.824800 1 27F72B6x Rx d 8 16 00 00 00 00 00 00 00 
50953.825100 1 18FF2013x Rx d 8 04 E0 00 08 00 18 00 00 
50953.825400 1 18FFA413x Rx d 8 1C FF 18 01 01 00 00 00 
50953.826300 1 18FF6A27x Rx d 8 00 00 00 F0 00 F0 00 06 
50953.826600 1 18FEF71Ex Rx d 8 00 00 00 00 C8 00 00 00 
50953.826900 1 18FF8427x Rx d 8 07 00 0A 07 00 E5 07 00 
50953.829400 1 268 Rx d 7 B1 C7 00 00 00 00 00 
50953.831100 1 18FF6E27x Rx d 8 00 00 00 00 00 00 00 00 
50953.833700 1 18FF1027x Rx d 5 00 00 00 00 00 
50953.834000 1 18FF1727x Rx d 8 00 00 00 00 41 10 00 00 
50953.834300 1 18FF8379x Rx d 8 04 00 00 00 00 00 00 00 
50953.836400 1 18FF6B27x Rx d 8 00 00 00 00 00 00 00 00 
50953.836700 1 18FF2027x Rx d 8 00 11 00 0E 00 00 00 00 
50953.837000 1 18FFA527x Rx d 8 02 00 00 00 00 00 00 00 
50953.837300 1 18FEF71Ex Rx d 8 00 00 00 00 C8 00 00 00 
50953.837600 1 18FF8427x Rx d 8 07 00 0A 07 00 E5 07 00 
50953.839400 1 268 Rx d 7 B2 C7 00 00 00 00 00 
50953.841100 1 18FF6827x Rx d 8 00 00 00 00 00 00 01 01 
50953.844500 1 18FF8C13x Rx d 8 0D 00 00 00 00 00 00 00 
50953.845900 1 18FF1027x Rx d 5 00 00 00 00 00 
50953.846200 1 18FF1727x Rx d 8 00 00 00 00 41 10 00 00 
50953.846500 1 18FF6927x Rx d 8 FF 00 06 00 00 00 00 00 
50953.846800 1 18FEF71Ex Rx d 8 00 00 00 00 C8 00 00 00 
50953.847100 1 18FF5838x Rx d 8 06 00 00 00 37 00 00 00 
50953.847400 1 7149Ax Rx d 8 00 00 00 00 00 00 00 00 
50953.847700 1 069 Rx d 8 00 00 00 00 00 00 00 00 
50953.848000 1 C01FEFEx Rx d 8 04 00 00 00 00 00 00 00 
50953.848300 1 18FF8379x Rx d 8 45 00 00 0E 00 00 10 02 
50953.848500 1 18FF8427x Rx d 8 07 00 0A 07 00 E5 07 00 
50953.848800 1 18FF8479x Rx d 8 01 00 00 00 00 00 00 00 
50953.849100 1 27F72BAx Rx d 8 2C 00 00 00 10 00 00 00 
50953.849400 1 400 Rx d 8 00 00 00 00 00 00 00 00 
50953.849700 1 268 Rx d 7 B3 C7 00 00 00 00 00 
50953.851200 1 18FF6C27x Rx d 8 0D FF 00 00 00 00 00 00 
50953.853800 1 066 Rx d 8 00 00 00 00 00 00 00 00 
50953.854000 1 18FF1027x Rx d 5 00 00 00 00 00 
50953.854300 1 18FF1727x Rx d 8 00 00 00 00 41 10 00 00 
50953.854600 1 18FF8379x Rx d 8 06 00 00 00 00 00 00 00 
50953.854900 1 27F72B6x Rx d 8 27 00 00 00 00 00 00 00 
50953.855200 1 18FF2013x Rx d 8 04 E0 00 08 00 28 00 00 
50953.855500 1 18FFA413x Rx d 8 1C FF 18 01 02 00 00 00 
50953.856400 1 18FF6A27x Rx d 8 00 00 00 F0 00 F0 00 06 
50953.856600 1 18FF8427x Rx d 8 07 00 0A 07 00 E5 07 00 
50953.856900 1 18FEF71Ex Rx d 8 00 00 00 00 C7 00 00 00 
50953.859600 1 268 Rx d 7 B4 C7 00 00 00 00 00 
50953.861100 1 18FF6E27x Rx d 8 00 00 00 00 00 00 00 00 
50953.863700 1 18FF1027x Rx d 5 00 00 00 00 00 
50953.864000 1 18FF1727x Rx d 8 00 00 00 00 41 10 00 00 
50953.864300 1 18FF8379x Rx d 8 07 10 00 00 50 00 00 00 
50953.866600 1 18FF6B27x Rx d 8 00 00 00 00 00 00 00 00 
50953.866900 1 18FF2027x Rx d 8 00 11 00 0E 01 00 00 00 
50953.867200 1 18FFA527x Rx d 8 02 00 00 00 00 00 00 00 
50953.867400 1 18FEF71Ex Rx d 8 00 00 00 00 C7 00 00 00 
50953.867700 1 18FF8427x Rx d 8 07 00 0A 07 00 E5 07 00 
50953.869400 1 268 Rx d 7 B5 C7 00 00 00 00 00 
50953.870100 1 C0027F3x Rx d 8 08 D0 07 7D 00 10 28 F9 
50953.870400 1 182027F3x Rx d 8 A1 00 00 00 E6 00 82 00 
50953.870600 1 182127F3x Rx d 8 BC 1B 3C 0F 64 0A 63 00 
50953.870900 1 182227F3x Rx d 8 08 00 00 7D 00 7D 00 00 
50953.871200 1 182327F3x Rx d 8 A8 00 9E 16 CA 03 02 00 
50953.871500 1 182627F3x Rx d 8 5E 15 82 00 00 7D 00 7D 
50953.871800 1 101027F3x Rx d 8 00 00 20 21 00 20 00 00 
50953.872100 1 10000111x Rx d 8 6C 6C 6C 6C 6C 6C 00 40 
50953.872400 1 18FF6827x Rx d 8 00 00 00 00 00 00 01 01 
50953.873700 1 18FF1027x Rx d 5 00 00 00 00 00 
50953.874000 1 18FF1727x Rx d 8 00 00 00 00 41 10 00 00 
50953.874300 1 18FF8379x Rx d 8 18 80 00 00 10 00 00 00 
50953.876300 1 18FF6927x Rx d 8 FF 00 06 00 00 00 00 00 
50953.876600 1 18FF8427x Rx d 8 07 00 0A 07 00 E5 07 00 
50953.876900 1 18FEF71Ex Rx d 8 00 00 00 00 C8 00 00 00 
50953.879500 1 268 Rx d 7 B6 C7 00 00 00 00 00 
50953.881100 1 18FF6C27x Rx d 8 0D FF 00 00 00 00 00 00 
50953.883700 1 066 Rx d 8 01 00 00 00 00 00 00 00 
50953.884000 1 18FF1027x Rx d 5 00 00 00 00 00 
50953.884300 1 18FF1727x Rx d 8 00 00 00 00 41 10 00 00 
50953.884600 1 18FF8379x Rx d 8 29 01 00 00 00 00 00 00 
50953.884800 1 27F72B6x Rx d 8 08 00 00 00 00 00 00 00 
50953.885100 1 18FF2013x Rx d 8 04 E0 00 08 00 38 00 00 
50953.885400 1 18FFA413x Rx d 8 1C FF 18 01 03 00 00 00 
50953.886400 1 18FF6A27x Rx d 8 00 00 00 F0 00 F0 00 06 
50953.886600 1 18FEF71Ex Rx d 8 00 00 00 00 C8 00 00 00 
50953.886900 1 18FF8427x Rx d 8 07 00 0A 07 00 E5 07 00 
50953.889500 1 268 Rx d 7 B7 C7 00 00 00 00 00 
50953.891100 1 18FF6E27x Rx d 8 00 00 00 00 00 00 00 00 
50953.893700 1 18FF1027x Rx d 5 00 00 00 00 00 
50953.894000 1 18FF1727x Rx d 8 00 00 00 00 41 10 00 00 
50953.894300 1 C01FEFEx Rx d 8 04 00 00 00 00 00 00 00 
50953.894600 1 18FF8379x Rx d 8 0A 00 00 00 00 00 00 00 
50953.896400 1 18FF6B27x Rx d 8 00 00 00 00 00 00 00 00 
50953.896700 1 18FF2027x Rx d 8 00 11 00 0E 02 00 00 00 
50953.897000 1 18FFA527x Rx d 8 02 00 00 00 00 00 00 00 
50953.897300 1 18FEF71Ex Rx d 8 00 00 00 00 C7 00 00 00 
50953.897600 1 18FF8427x Rx d 8 07 00 0A 07 00 E5 07 00 
50953.899400 1 268 Rx d 7 B8 C7 00 00 00 00 00 
50953.901200 1 18FF6827x Rx d 8 00 00 00 00 00 00 01 01 
50953.903700 1 18FF1027x Rx d 5 00 00 00 00 00 
50953.904000 1 18FF1727x Rx d 8 00 00 00 00 41 10 00 00 
50953.904300 1 18FF8379x Rx d 8 0B 00 00 00 40 08 00 00 
50953.906300 1 18FF6927x Rx d 8 FF 00 06 00 00 00 00 00 
50953.906600 1 18FEF71Ex Rx d 8 00 00 00 00 C7 00 00 00 
50953.906900 1 18FF8427x Rx d 8 07 00 0A 07 00 E5 07 00 
50953.909500 1 268 Rx d 7 B9 C7 00 00 00 00 00 
50953.911100 1 18FF6C27x Rx d 8 0D FF 00 00 00 00 00 00 
50953.913700 1 066 Rx d 8 02 00 00 00 00 00 00 00 
50953.914000 1 18FF1027x Rx d 5 00 00 00 00 00 
50953.914300 1 18FF1727x Rx d 8 00 00 00 00 41 10 00 00 
50953.914500 1 18FF8379x Rx d 8 3C 21 B2 78 F2 38 40 10 
50953.914800 1 27F72B6x Rx d 8 30 00 00 00 00 00 00 00 
50953.915100 1 18FF2013x Rx d 8 04 E0 00 08 00 48 00 00 
50953.915400 1 18FFA413x Rx d 8 1C FF 18 01 04 00 00 00 
50953.917100 1 18FF6A27x Rx d 8 00 00 00 F0 00 F0 00 06 
50953.917300 1 18FF6D27x Rx d 8 04 50 48 52 09 21 04 01 
50953.917600 1 18FF8227x Rx d 8 0D 00 01 6D 00 02 01 00 
50953.917900 1 086 Rx d 8 00 00 00 00 00 00 00 00 
50953.918200 1 CFF1227x Rx d 8 00 D0 07 00 00 00 00 00 
50953.918400 1 CF11227x Rx d 8 00 34 08 00 00 00 00 00 
50953.918700 1 C00F327x Rx d 8 80 02 39 3A 28 28 00 15 
50953.919000 1 18FEF71Ex Rx d 8 00 00 00 00 C7 00 00 00 
50953.919500 1 268 Rx d 7 BA C7 00 00 00 00 00 
50953.921200 1 18FF6E27x Rx d 8 00 00 00 00 00 00 00 00 
50953.923700 1 18FF1027x Rx d 5 00 00 00 00 00 
50953.924000 1 18FF1727x Rx d 8 00 00 00 00 41 10 00 00 
50953.924300 1 18FF8379x Rx d 8 AD 74 62 18 60 02 01 00 
50953.926100 1 A100101x Rx d 1 E4 
50953.926400 1 18FF6B27x Rx d 8 00 00 00 00 00 00 00 00 
50953.926700 1 A100100x Rx d 8 E4 04 00 0E 05 02 E9 05 
50953.927000 1 18FF2027x Rx d 8 00 11 00 0E 03 00 00 00 
50953.927300 1 18FFA527x Rx d 8 02 00 00 00 00 00 00 00 
50953.927600 1 18FEF71Ex Rx d 8 00 00 00 00 C7 00 00 00 
50953.927900 1 18FF8227x Rx d 8 0D 00 01 6D 00 02 01 00 
50953.929400 1 268 Rx d 7 BB C7 00 00 00 00 00 
50953.931200 1 18FF6827x Rx d 8 00 00 00 00 00 00 01 01 
50953.933800 1 18FF1027x Rx d 5 00 00 00 00 00 
50953.934100 1 18FF1727x Rx d 8 00 00 00 00 41 10 00 00 
50953.934400 1 18FF8379x Rx d 8 0E 00 00 DD 04 1B 00 00 
50953.936400 1 18FF6927x Rx d 8 FF 00 06 00 00 00 00 00 
50953.936600 1 18FF8227x Rx d 8 0D 00 01 6D 00 02 01 00 
50953.936900 1 18FEF71Ex Rx d 8 00 00 00 00 C7 00 00 00 
50953.939500 1 268 Rx d 7 BC C7 00 00 00 00 00 
50953.941100 1 18FF6C27x Rx d 8 0D FF 00 00 00 00 00 00 
50953.944600 1 18FF8C13x Rx d 8 0D 00 00 00 00 00 00 00 
50953.945800 1 066 Rx d 8 03 00 00 00 00 00 00 00 
50953.946100 1 18FF1027x Rx d 5 00 00 00 00 00 
50953.946400 1 18FF1727x Rx d 8 00 00 00 00 41 10 00 00 
50953.946700 1 18FEF71Ex Rx d 8 00 00 00 00 C7 00 00 00 
50953.946900 1 18FF5838x Rx d 8 06 00 00 00 37 00 00 00 
50953.947200 1 7149Ax Rx d 8 00 00 00 00 00 00 00 00 
50953.947500 1 069 Rx d 8 00 00 00 00 00 00 00 00 
50953.947800 1 C01FEFEx Rx d 8 04 00 00 00 00 00 00 00 
50953.948100 1 18FF6A27x Rx d 8 00 00 00 F0 00 F0 00 06 
50953.948300 1 18FF8227x Rx d 8 0D 00 01 6D 00 02 01 00 
50953.948600 1 18FF8379x Rx d 8 10 00 00 00 40 40 40 00 
50953.948900 1 18FF8479x Rx d 8 01 00 00 00 00 00 00 00 
50953.949200 1 27F72BAx Rx d 8 2D 00 00 00 41 00 C0 00 
50953.949500 1 27F72B6x Rx d 8 41 00 00 00 00 00 00 00 
50953.949800 1 400 Rx d 8 00 00 00 00 00 00 00 00 
50953.950100 1 18FF2013x Rx d 8 04 E0 00 08 00 58 00 00 
50953.950300 1 268 Rx d 7 BD C7 00 00 00 00 00 
50953.950600 1 18FFA413x Rx d 8 1C FF 18 01 05 00 00 00 
50953.951200 1 18FF6E27x Rx d 8 00 00 00 00 00 00 00 00 
50953.953700 1 18FF1027x Rx d 5 00 00 00 00 00 
50953.954000 1 18FF1727x Rx d 8 00 00 00 00 41 10 00 00 
50953.954300 1 18FF8379x Rx d 8 01 00 00 00 00 00 00 00 
50953.956400 1 18FF6B27x Rx d 8 00 00 00 00 00 00 00 00 
50953.956700 1 18FF2027x Rx d 8 00 11 00 0E 04 00 00 00 
50953.957000 1 18FFA527x Rx d 8 02 00 00 00 00 00 00 00 
50953.957300 1 18FEF71Ex Rx d 8 00 00 00 00 C7 00 00 00 
50953.957600 1 18FF8227x Rx d 8 0D 00 01 6D 00 02 01 00 
50953.959400 1 268 Rx d 7 BE C7 00 00 00 00 00 
50953.961100 1 18FF6827x Rx d 8 00 00 00 00 00 00 01 01 
50953.963700 1 18FF1027x Rx d 5 00 00 00 00 00 
50953.964000 1 18FF1727x Rx d 8 00 00 00 00 41 10 00 00 
50953.964300 1 18FF8379x Rx d 8 02 00 00 00 40 00 00 00 
50953.966500 1 18FF6927x Rx d 8 FF 00 06 00 00 00 00 00 
50953.966800 1 18FEF71Ex Rx d 8 00 00 00 00 C7 00 00 00 
50953.967100 1 18FF8327x Rx d 8 AD 00 0C 00 00 00 00 00 
50953.969500 1 268 Rx d 7 BF C7 00 00 00 00 00 
50953.970100 1 C0027F3x Rx d 8 08 D0 07 7D 00 10 28 FA 
50953.970400 1 182027F3x Rx d 8 A1 00 00 00 E6 00 82 00 
50953.970700 1 182127F3x Rx d 8 BC 1B 3C 0F 64 0A 63 00 
50953.971000 1 182227F3x Rx d 8 08 00 00 7D 00 7D 00 00 
50953.971200 1 182327F3x Rx d 8 A8 00 9E 16 CA 03 02 00 
50953.971500 1 182627F3x Rx d 8 5E 15 82 00 00 7D 00 7D 
50953.971800 1 101027F3x Rx d 8 00 00 20 21 00 20 00 00 
50953.972100 1 10000111x Rx d 8 6C 6C 6C 6C 6C 6C 00 40 
50953.972400 1 18FF6C27x Rx d 8 0D FF 00 00 00 00 00 00 
50953.973800 1 066 Rx d 8 04 00 00 00 00 00 00 00 
50953.974000 1 18FF1027x Rx d 5 00 00 00 00 00 
50953.974300 1 18FF1727x Rx d 8 00 00 00 00 41 10 00 00 
50953.974600 1 18FF8379x Rx d 8 03 00 20 00 00 00 00 00 
50953.974900 1 27F72B6x Rx d 8 02 00 00 00 00 00 00 00 
50953.975200 1 18FF2013x Rx d 8 04 E0 00 08 00 68 00 00 
50953.975500 1 18FFA413x Rx d 8 1C FF 18 01 06 00 00 00 
50953.976300 1 18FF6A27x Rx d 8 00 00 00 F0 00 F0 00 06 
50953.976600 1 18FF8327x Rx d 8 AD 00 0C 00 00 00 00 00 
50953.976900 1 18FEF71Ex Rx d 8 00 00 00 00 C7 00 00 00 
50953.979400 1 268 Rx d 7 C0 C7 00 00 00 00 00 
50953.981200 1 18FF6E27x Rx d 8 00 00 00 00 00 00 00 00 
50953.983800 1 18FF1027x Rx d 5 00 00 00 00 00 
50953.984000 1 18FF1727x Rx d 8 00 00 00 00 41 10 00 00 
50953.984300 1 18FF8379x Rx d 8 04 00 00 00 00 00 00 00 
50953.986400 1 18FF6B27x Rx d 8 00 00 00 00 00 00 00 00 
50953.986700 1 18FF2027x Rx d 8 00 11 00 0E 05 00 00 00 
50953.987000 1 18FFA527x Rx d 8 02 00 00 00 00 00 00 00 
50953.987300 1 18FEF71Ex Rx d 8 00 00 00 00 CA 00 00 00 
50953.987500 1 18FF8327x Rx d 8 AD 00 0C 00 00 00 00 00 
50953.989400 1 268 Rx d 7 C1 C7 00 00 00 00 00 
50953.991100 1 18FF6827x Rx d 8 00 00 00 00 00 00 01 01 
50953.993700 1 18FF1027x Rx d 5 00 00 00 00 00 
50953.994000 1 18FF1727x Rx d 8 00 00 00 00 41 10 00 00 
50953.994300 1 C01FEFEx Rx d 8 04 00 00 00 00 00 00 00 
50953.994600 1 18FF8379x Rx d 8 45 00 00 0E 00 00 10 02 
50953.996300 1 18FF6927x Rx d 8 FF 00 06 00 00 00 00 00 
50953.996600 1 18FF8327x Rx d 8 AD 00 0C 00 00 00 00 00 
50953.996900 1 18FEF71Ex Rx d 8 00 00 00 00 CF 00 00 00 
50953.999500 1 268 Rx d 7 C2 C7 00 00 00 00 00 
50954.001100 1 18FF6C27x Rx d 8 0D FF 00 00 00 00 00 00 
50954.003800 1 066 Rx d 8 05 00 00 00 00 00 00 00 
50954.004000 1 18FF1027x Rx d 5 00 00 00 00 00 
50954.004300 1 18FF1727x Rx d 8 00 00 00 00 41 10 00 00 
50954.004600 1 18FF8379x Rx d 8 06 00 00 00 00 00 00 00 
50954.004900 1 27F72B6x Rx d 8 13 00 00 00 00 00 00 00 
50954.005100 1 18FF2013x Rx d 8 04 E0 00 08 00 78 00 00 
50954.005400 1 18FFA413x Rx d 8 1C FF 18 01 07 00 00 00 
50954.006300 1 18FF6A27x Rx d 8 00 00 00 F0 00 F0 00 06 
50954.006600 1 18FEF71Ex Rx d 8 00 00 00 00 D2 00 00 00 
50954.006900 1 18FF8327x Rx d 8 AD 00 0C 00 00 00 00 00 
50954.009400 1 268 Rx d 7 C3 C7 00 00 00 00 00 
50954.011100 1 18FF6E27x Rx d 8 00 00 00 00 00 00 00 00 
50954.013800 1 18FF1027x Rx d 5 00 00 00 00 00 
50954.014100 1 18FF1727x Rx d 8 00 00 00 00 41 10 00 00 
50954.014300 1 18FF8379x Rx d 8 07 10 00 00 50 00 00 00 
50954.017100 1 18FF6B27x Rx d 8 00 00 00 00 00 00 00 00 
50954.017400 1 18FF6D27x Rx d 8 04 50 50 52 09 21 04 01 
50954.017600 1 086 Rx d 8 00 00 00 00 00 00 00 00 
50954.017900 1 CFF1227x Rx d 8 00 D0 07 00 00 00 00 00 
50954.018200 1 CF11227x Rx d 8 00 34 08 00 00 00 00 00 
50954.018500 1 C00F327x Rx d 8 80 02 39 3A 28 28 40 15 
50954.018800 1 18FF2027x Rx d 8 00 11 00 0E 06 00 00 00 
50954.019100 1 18FFA527x Rx d 8 02 00 00 00 00 00 00 00 
50954.019400 1 18FEF71Ex Rx d 8 00 00 00 00 D4 00 00 00 
50954.019600 1 268 Rx d 7 C4 C7 00 00 00 00 00 
50954.019900 1 18FF8427x Rx d 8 07 00 0A 07 00 E5 07 00 
50954.021100 1 18FF6827x Rx d 8 00 00 00 00 00 00 01 01 
50954.023700 1 18FF1027x Rx d 5 00 00 00 00 00 
50954.024000 1 18FF1727x Rx d 8 00 00 00 00 41 10 00 00 
50954.024300 1 18FF8379x Rx d 8 18 80 00 00 10 00 00 00 
50954.026300 1 18FF6927x Rx d 8 FF 00 06 00 00 00 00 00 
50954.026600 1 18FEF71Ex Rx d 8 00 00 00 00 D6 00 00 00 
50954.026900 1 18FF8427x Rx d 8 07 00 0A 07 00 E5 07 00 
50954.029500 1 268 Rx d 7 C5 C7 00 00 00 00 00 
50954.031200 1 18FF6C27x Rx d 8 0D FF 00 00 00 00 00 00 
50954.033800 1 066 Rx d 8 06 00 00 00 00 00 00 00 
50954.034000 1 18FF1027x Rx d 5 00 00 00 00 00 
50954.034300 1 18FF1727x Rx d 8 00 00 00 00 41 10 00 00 
50954.034600 1 18FF8379x Rx d 8 29 01 00 00 00 00 00 00 
50954.034900 1 27F72B6x Rx d 8 14 00 00 00 00 00 00 00 
50954.035100 1 18FF2013x Rx d 8 04 E0 00 08 00 08 00 00 
50954.035400 1 18FFA413x Rx d 8 1C FF 18 01 00 00 00 00 
50954.036100 1 A100101x Rx d 1 E2 
50954.036400 1 18FF6A27x Rx d 8 00 00 00 F0 00 F0 00 06 
50954.036600 1 A100100x Rx d 8 E2 04 01 68 23 01 3B 23 
50954.036900 1 18FEF71Ex Rx d 8 00 00 00 00 D7 00 00 00 
50954.037200 1 18FF8427x Rx d 8 07 00 0A 07 00 E5 07 00 
50954.039400 1 268 Rx d 7 C6 C7 00 00 00 00 00 
50954.041100 1 18FF6E27x Rx d 8 00 00 00 00 00 00 00 00 
50954.043400 1 18FF2745x Rx d 8 39 3A 00 FF 8C 00 00 9E 
50954.044600 1 18FF8C13x Rx d 8 0D 00 00 00 00 00 00 00 
50954.046000 1 18FF1027x Rx d 5 00 00 00 00 00 
50954.046300 1 18FF1727x Rx d 8 00 00 00 00 41 10 00 00 
50954.046600 1 18FF6B27x Rx d 8 00 00 00 00 00 00 00 00 
50954.046900 1 18FECA79x Rx d 8 04 04 00 00 00 00 00 00 
50954.047200 1 18FF2027x Rx d 8 00 11 00 0E 07 00 00 00 
50954.047500 1 18FF5838x Rx d 8 06 00 00 00 37 00 00 00 
50954.047800 1 7149Ax Rx d 8 00 00 00 00 00 00 00 00 
50954.048000 1 069 Rx d 8 00 00 00 00 00 00 00 00 
50954.048300 1 C01FEFEx Rx d 8 04 00 00 00 00 00 00 00 
50954.048600 1 18FF8379x Rx d 8 0A 00 00 00 00 00 00 00 
50954.048900 1 18FF8479x Rx d 8 01 00 00 00 00 00 00 00 
50954.049200 1 27F72BAx Rx d 8 08 00 00 D0 88 40 04 00 
50954.049400 1 400 Rx d 8 00 00 00 00 00 00 00 00 
50954.049700 1 18FFA527x Rx d 8 02 00 00 00 00 00 00 00 
50954.049900 1 268 Rx d 7 C7 C7 00 00 00 00 00 
50954.050200 1 18FEF71Ex Rx d 8 00 00 00 00 D8 00 00 00 
50954.050500 1 18FF8427x Rx d 8 07 00 0A 07 00 E5 07 00 
50954.051100 1 18FF6827x Rx d 8 00 00 00 00 00 00 01 01 
50954.053800 1 18FF1027x Rx d 5 00 00 00 00 00 
50954.054100 1 18FF1727x Rx d 8 00 00 00 00 41 10 00 00 
50954.054400 1 18FF8379x Rx d 8 0B 00 00 00 40 08 00 00 
50954.056300 1 18FF6927x Rx d 8 FF 00 06 00 00 00 00 00 
50954.056600 1 18FF8427x Rx d 8 07 00 0A 07 00 E5 07 00 
50954.056900 1 18FEF71Ex Rx d 8 00 00 00 00 D8 00 00 00 
50954.059600 1 268 Rx d 7 C8 C7 00 00 00 00 00 
50954.061200 1 18FF6C27x Rx d 8 0D FF 00 00 00 00 00 00 
50954.063800 1 066 Rx d 8 07 00 00 00 00 00 00 00 
50954.064000 1 18FF1027x Rx d 5 00 00 00 00 00 
50954.064300 1 18FF1727x Rx d 8 00 00 00 00 41 10 00 00 
50954.064600 1 18FF8379x Rx d 8 3C 1F A2 74 F2 38 40 10 
50954.064900 1 27F72B6x Rx d 8 05 00 00 00 00 00 00 00 
50954.065200 1 18FF2013x Rx d 8 04 E0 00 08 00 18 00 00 
50954.065500 1 18FFA413x Rx d 8 1C FF 18 01 01 00 00 00 
50954.066500 1 18FF6A27x Rx d 8 00 00 00 F0 00 F0 00 06 
50954.066800 1 18FEF71Ex Rx d 8 00 00 00 00 D9 00 00 00 
50954.067100 1 18FF8427x Rx d 8 07 00 0A 07 00 E5 07 00 
50954.069400 1 268 Rx d 7 C9 C7 00 00 00 00 00 
50954.070100 1 C0027F3x Rx d 8 08 D0 07 7D 00 10 28 FB 
50954.070400 1 182027F3x Rx d 8 A1 00 00 00 E6 00 82 00 
50954.070700 1 182127F3x Rx d 8 BC 1B 3C 0F 64 0A 63 00 
50954.071000 1 182227F3x Rx d 8 08 00 00 7D 00 7D 00 00 
50954.071300 1 182327F3x Rx d 8 A8 00 9E 16 CA 03 02 00 
50954.071500 1 182627F3x Rx d 8 5E 15 82 00 00 7D 00 7D 
50954.071800 1 101027F3x Rx d 8 00 00 20 21 00 20 00 00 
50954.072100 1 10000111x Rx d 8 6C 6C 6C 6C 6C 6C 00 40 
50954.072400 1 18FF6E27x Rx d 8 00 00 00 00 00 00 00 00 
50954.073700 1 18FF1027x Rx d 5 00 00 00 00 00 
50954.074000 1 18FF1727x Rx d 8 00 00 00 00 41 10 00 00 
50954.074300 1 18FF8379x Rx d 8 9D 70 62 18 60 02 01 00 
50954.076400 1 18FF6B27x Rx d 8 00 00 00 00 00 00 00 00 
50954.076700 1 18FF2027x Rx d 8 00 11 00 0E 00 00 00 00 
50954.077000 1 18FFA527x Rx d 8 02 00 00 00 00 00 00 00 
50954.077300 1 18FEF71Ex Rx d 8 00 00 00 00 D9 00 00 00 
50954.077600 1 18FF8427x Rx d 8 07 00 0A 07 00 E5 07 00 
50954.079400 1 268 Rx d 7 CA C7 00 00 00 00 00 
50954.081200 1 18FF6827x Rx d 8 00 00 00 00 00 00 01 01 
50954.083800 1 18FF1027x Rx d 5 00 00 00 00 00 
50954.084000 1 18FF1727x Rx d 8 00 00 00 00 41 10 00 00 
50954.084300 1 18FF8379x Rx d 8 0E 00 E0 D4 04 1B 00 00 
50954.086300 1 18FF6927x Rx d 8 FF 00 06 00 00 00 00 00 
50954.086600 1 18FEF71Ex Rx d 8 00 00 00 00 DA 00 00 00 
50954.086900 1 18FF8427x Rx d 8 07 00 0A 07 00 E5 07 00 
50954.089500 1 268 Rx d 7 CB C7 00 00 00 00 00 
50954.091100 1 18FF6C27x Rx d 8 0D FF 00 00 00 00 00 00 
50954.093800 1 066 Rx d 8 00 00 00 00 00 00 00 00 
50954.094000 1 18FF1027x Rx d 5 00 00 00 00 00 
50954.094300 1 18FF1727x Rx d 8 00 00 00 00 41 10 00 00 
50954.094600 1 C01FEFEx Rx d 8 04 00 00 00 00 00 00 00 
50954.094900 1 18FF8379x Rx d 8 10 00 00 00 40 40 40 00 
50954.095200 1 27F72B6x Rx d 8 16 00 00 00 00 00 00 00 
50954.095500 1 18FF2013x Rx d 8 04 E0 00 08 00 28 00 00 
50954.095800 1 18FFA413x Rx d 8 1C FF 18 01 02 00 00 00 
50954.096400 1 18FF6A27x Rx d 8 00 00 00 F0 00 F0 00 06 
50954.096600 1 18FF8427x Rx d 8 07 00 0A 07 00 E5 07 00 
50954.096900 1 18FEF71Ex Rx d 8 00 00 00 00 DA 00 00 00 
50954.099500 1 268 Rx d 7 CC C7 00 00 00 00 00 
50954.101100 1 18FF6E27x Rx d 8 00 00 00 00 00 00 00 00 
50954.103800 1 18FF1027x Rx d 5 00 00 00 00 00 
50954.104100 1 18FF1727x Rx d 8 00 00 00 00 41 10 00 00 
50954.104400 1 18FF8379x Rx d 8 01 00 00 00 00 00 00 00 
50954.106400 1 18FF6B27x Rx d 8 00 00 00 00 00 00 00 00 
50954.106700 1 18FF2027x Rx d 8 00 11 00 0E 01 00 00 00 
50954.107000 1 18FFA527x Rx d 8 02 00 00 00 00 00 00 00 
50954.107200 1 18FEF71Ex Rx d 8 00 00 00 00 DA 00 00 00 
50954.107500 1 18FF8427x Rx d 8 07 00 0A 07 00 E5 07 00 
50954.109400 1 268 Rx d 7 CD C7 00 00 00 00 00 
50954.111200 1 18FF6827x Rx d 8 00 00 00 00 00 00 01 01 
50954.113800 1 18FF1027x Rx d 5 00 00 00 00 00 
50954.114100 1 18FF1727x Rx d 8 00 00 00 00 41 10 00 00 
50954.114300 1 18FF8379x Rx d 8 02 00 00 00 40 00 00 00 
50954.117100 1 18FF6927x Rx d 8 FF 00 06 00 00 00 00 00 
50954.117300 1 18FF6D27x Rx d 8 04 50 58 52 09 21 04 01 
50954.117600 1 18FF8427x Rx d 8 07 00 0A 07 00 E5 07 00 
50954.117900 1 086 Rx d 8 00 00 00 00 00 00 00 00 
50954.118200 1 CFF1227x Rx d 8 00 D0 07 00 00 00 00 00 
50954.118500 1 CF11227x Rx d 8 00 34 08 00 00 00 00 00 
50954.118700 1 C00F327x Rx d 8 80 02 39 3A 28 28 80 15 
50954.119000 1 18FEF71Ex Rx d 8 00 00 00 00 DA 00 00 00 
50954.119500 1 268 Rx d 7 CE C7 00 00 00 00 00 
50954.121100 1 18FF6C27x Rx d 8 0D FF 00 00 00 00 00 00 
50954.123800 1 066 Rx d 8 01 00 00 00 00 00 00 00 
50954.124000 1 18FF1027x Rx d 5 00 00 00 00 00 
50954.124300 1 18FF1727x Rx d 8 00 00 00 00 41 10 00 00 
50954.124600 1 18FF8379x Rx d 8 03 00 20 00 00 00 00 00 
50954.124900 1 27F72B6x Rx d 8 27 00 00 00 00 00 00 00 
50954.125200 1 18FF2013x Rx d 8 04 E0 00 08 00 38 00 00 
50954.125500 1 18FFA413x Rx d 8 1C FF 18 01 03 00 00 00 
50954.126300 1 18FF6A27x Rx d 8 00 00 00 F0 00 F0 00 06 
50954.126600 1 18FEF71Ex Rx d 8 00 00 00 00 DB 00 00 00 
50954.126900 1 18FF8427x Rx d 8 07 00 0A 07 00 E5 07 00 
50954.129500 1 268 Rx d 7 CF C7 00 00 00 00 00 
50954.131200 1 18FF6E27x Rx d 8 00 00 00 00 00 00 00 00 
50954.133800 1 18FF1027x Rx d 5 00 00 00 00 00 
50954.134100 1 18FF1727x Rx d 8 00 00 00 00 41 10 00 00 
50954.134400 1 18FF8379x Rx d 8 04 00 00 00 00 00 00 00 
50954.136400 1 18FF6B27x Rx d 8 00 00 00 00 00 00 00 00 
50954.136700 1 18FF2027x Rx d 8 00 11 00 0E 02 00 00 00 
50954.137000 1 18FFA527x Rx d 8 02 00 00 00 00 00 00 00 
50954.137300 1 18FEF71Ex Rx d 8 00 00 00 00 DB 00 00 00 
50954.137600 1 18FF8427x Rx d 8 07 00 0A 07 00 E5 07 00 
50954.139400 1 268 Rx d 7 D0 C7 00 00 00 00 00 
50954.141200 1 18FF6827x Rx d 8 00 00 00 00 00 00 01 01 
50954.144700 1 18FF8C13x Rx d 8 0D 00 00 00 00 00 00 00 
50954.146100 1 18FF1027x Rx d 5 00 00 00 00 00 
50954.146200 1 A100101x Rx d 1 E3 
50954.146500 1 18FF1727x Rx d 8 00 00 00 00 41 10 00 00 
50954.146800 1 A100100x Rx d 8 E3 04 00 0E 05 00 00 05 
50954.147100 1 18FEF71Ex Rx d 8 00 00 00 00 DB 00 00 00 
50954.147400 1 18FF5838x Rx d 8 06 00 00 00 37 00 00 00 
50954.147700 1 7149Ax Rx d 8 00 00 00 00 00 00 00 00 
50954.147900 1 069 Rx d 8 00 00 00 00 00 00 00 00 
50954.148200 1 C01FEFEx Rx d 8 04 00 00 00 00 00 00 00 
50954.148500 1 18FF6927x Rx d 8 FF 00 06 00 00 00 00 00 
50954.148800 1 18FF8379x Rx d 8 45 00 00 0E 00 00 10 02 
50954.149100 1 18FF8427x Rx d 8 07 00 0A 07 00 E5 07 00 
50954.149300 1 400 Rx d 8 00 00 00 00 00 00 00 00 
50954.149600 1 18FF8479x Rx d 8 01 00 00 00 00 00 00 00 
50954.149900 1 27F72BAx Rx d 8 C9 06 00 00 00 00 00 00 
50954.150200 1 268 Rx d 7 D1 C7 00 00 00 00 00 
50954.151100 1 18FF6C27x Rx d 8 0D FF 00 00 00 00 00 00 
50954.153800 1 066 Rx d 8 02 00 00 00 00 00 00 00 
50954.154000 1 18FF1027x Rx d 5 00 00 00 00 00 
50954.154300 1 18FF1727x Rx d 8 00 00 00 00 41 10 00 00 
50954.154600 1 18FF8379x Rx d 8 06 00 00 00 00 00 00 00 
50954.154900 1 27F72B6x Rx d 8 08 00 00 00 00 00 00 00 
50954.155200 1 18FF2013x Rx d 8 04 E0 00 08 00 48 00 00 
50954.155500 1 18FFA413x Rx d 8 1C FF 18 01 04 00 00 00 
50954.156300 1 18FF6A27x Rx d 8 00 00 00 F0 00 F0 00 06 
50954.156600 1 18FF8427x Rx d 8 07 00 0A 07 00 E5 07 00 
50954.156900 1 18FEF71Ex Rx d 8 00 00 00 00 DB 00 00 00 
50954.159500 1 268 Rx d 7 D2 C7 00 00 00 00 00 
50954.161200 1 18FF6E27x Rx d 8 00 00 00 00 00 00 00 00 
50954.163800 1 18FF1027x Rx d 5 00 00 00 00 00 
50954.164100 1 18FF1727x Rx d 8 00 00 00 00 41 10 00 00 
50954.164400 1 18FF8379x Rx d 8 07 10 00 00 50 00 00 00 
50954.166600 1 18FF6B27x Rx d 8 00 00 00 00 00 00 00 00 
50954.166800 1 18FF2027x Rx d 8 00 11 00 0E 03 00 00 00 
50954.167100 1 18FFA527x Rx d 8 02 00 00 00 00 00 00 00 
50954.167400 1 18FEF71Ex Rx d 8 00 00 00 00 DB 00 00 00 
50954.167700 1 18FF8427x Rx d 8 07 00 0A 07 00 E5 07 00 
50954.169400 1 268 Rx d 7 D3 C7 00 00 00 00 00 
50954.170300 1 C0027F3x Rx d 8 08 D0 07 7D 00 10 28 FC 
50954.170500 1 182027F3x Rx d 8 A1 00 00 00 E6 00 82 00 
50954.170800 1 182127F3x Rx d 8 BC 1B 3C 0F 64 0A 63 00 
50954.171100 1 182227F3x Rx d 8 08 00 00 7D 00 7D 00 00 
50954.171400 1 182327F3x Rx d 8 A8 00 9E 16 CA 03 02 00 
50954.171700 1 182627F3x Rx d 8 5E 15 82 00 00 7D 00 7D 
50954.172000 1 101027F3x Rx d 8 00 00 20 21 00 20 00 00 
50954.172200 1 10000111x Rx d 8 6C 6C 6C 6C 6C 6C 00 40 
50954.172500 1 18FF6827x Rx d 8 00 00 00 00 00 00 01 01 
50954.173800 1 18FF1027x Rx d 5 00 00 00 00 00 
50954.174100 1 18FF1727x Rx d 8 00 00 00 00 41 10 00 00 
50954.174400 1 18FF8379x Rx d 8 18 80 00 00 10 00 00 00 
50954.176400 1 18FF6927x Rx d 8 FF 00 06 00 00 00 00 00 
50954.176700 1 18FF8427x Rx d 8 07 00 0A 07 00 E5 07 00 
50954.176900 1 18FEF71Ex Rx d 8 00 00 00 00 DB 00 00 00 
50954.179500 1 268 Rx d 7 D4 C7 00 00 00 00 00 
50954.181100 1 18FF6C27x Rx d 8 0D FF 00 00 00 00 00 00 
50954.183800 1 066 Rx d 8 03 00 00 00 00 00 00 00 
50954.184100 1 18FF1027x Rx d 5 00 00 00 00 00 
50954.184300 1 18FF1727x Rx d 8 00 00 00 00 41 10 00 00 
50954.184600 1 18FF8379x Rx d 8 29 01 00 00 00 00 00 00 
50954.184900 1 27F72B6x Rx d 8 30 00 00 00 00 00 00 00 
50954.185200 1 18FF2013x Rx d 8 04 E0 00 08 00 58 00 00 
50954.185500 1 18FFA413x Rx d 8 1C FF 18 01 05 00 00 00 
50954.186300 1 18FF6A27x Rx d 8 00 00 00 F0 00 F0 00 06 
50954.186600 1 18FEF71Ex Rx d 8 00 00 00 00 DB 00 00 00 
50954.186900 1 18FF8427x Rx d 8 07 00 0A 07 00 E5 07 00 
50954.189500 1 268 Rx d 7 D5 C7 00 00 00 00 00 
50954.191200 1 18FF6E27x Rx d 8 00 00 00 00 00 00 00 00 
