date Wed Sep 29 8:51:56 pm 2021
base hex  no internal events logged
// version 7.1.0
75116.703000 1 18FF6C27x Rx d 8 0D FF 00 00 00 00 00 00 
75116.704000 1 C0027F3x Rx d 8 08 D0 07 7D 00 10 28 60 
75116.704000 1 101227F3x Rx d 8 11 0F 0F 16 0A 0F 04 05 
75116.704000 1 101627F3x Rx d 8 3D 0B 02 3B 0E 06 00 00 
75116.705000 1 182027F3x Rx d 8 FC 02 00 00 76 11 5A 19 
75116.705000 1 182127F3x Rx d 8 BC 1B B2 11 64 0A 63 00 
75116.705000 1 182227F3x Rx d 8 02 00 00 7D 00 7D 00 00 
75116.705000 1 182327F3x Rx d 8 44 01 42 18 DA 07 07 00 
75116.706000 1 182627F3x Rx d 8 3C 19 32 00 00 7D 00 7D 
75116.706000 1 101027F3x Rx d 8 00 00 00 00 00 00 00 00 
75116.706000 1 10000111x Rx d 8 C0 C0 C0 C0 C0 C0 01 00 
75116.706000 1 18FF1027x Rx d 5 00 00 00 00 00 
75116.707000 1 615 Rx d 8 00 00 00 00 00 00 00 00 
75116.707000 1 18FF1727x Rx d 8 00 00 00 00 41 10 00 00 
75116.707000 1 1D9 Rx d 8 34 00 03 00 00 00 00 00 
75116.708000 1 18FF8379x Rx d 8 04 00 00 00 00 00 00 00 
75116.709000 1 18FF6A27x Rx d 8 00 00 00 00 00 00 00 06 
75116.709000 1 18FF8427x Rx d 8 1C 00 09 1C 00 E5 07 00 
75116.709000 1 18FEF71Ex Rx d 8 00 00 00 00 EA 01 00 00 
75116.710000 1 095 Tx d 8 00 00 00 00 00 00 00 00 
75116.711000 1 268 Rx d 7 4C B6 23 00 00 00 00 
75116.713000 1 18FF6E27x Rx d 8 00 00 00 00 00 00 00 00 
75116.716000 1 18FF1027x Rx d 5 00 00 00 00 00 
75116.716000 1 615 Rx d 8 00 00 00 00 00 00 00 00 
75116.717000 1 18FF1727x Rx d 8 00 00 00 00 41 10 00 00 
75116.717000 1 C01FEFEx Rx d 8 00 00 00 00 00 00 00 00 
75116.717000 1 1D9 Rx d 8 34 00 03 00 00 00 00 00 
75116.717000 1 18FF8379x Rx d 8 05 00 00 0E 00 00 10 02 
75116.719000 1 18FF6B27x Rx d 8 00 00 00 00 00 00 00 00 
75116.719000 1 18FF2027x Rx d 8 00 11 00 02 02 00 00 00 
75116.719000 1 18FFA527x Rx d 8 02 00 00 00 00 00 00 00 
75116.720000 1 18FEF71Ex Rx d 8 00 00 00 00 EA 01 00 00 
75116.720000 1 18FF8427x Rx d 8 1C 00 09 1C 00 E5 07 00 
75116.721000 1 268 Rx d 7 4D B6 23 00 00 00 00 
75116.723000 1 18FF6827x Rx d 8 00 00 00 00 00 00 01 01 
75116.726000 1 066 Rx d 8 02 00 00 00 00 00 00 00 
75116.726000 1 18FF1027x Rx d 5 00 00 00 00 00 
75116.727000 1 615 Rx d 8 00 00 00 00 00 00 00 00 
75116.727000 1 18FF1727x Rx d 8 00 00 00 00 41 10 00 00 
75116.727000 1 1D9 Rx d 8 34 00 03 00 00 00 00 00 
75116.727000 1 18FF8379x Rx d 8 06 00 00 00 00 00 00 00 
75116.728000 1 27F72B6x Rx d 8 08 00 00 00 00 00 00 00 
75116.728000 1 095 Tx d 8 00 00 00 00 00 00 00 00 
75116.728000 1 18FF2013x Rx d 8 04 E0 00 04 00 58 00 00 
75116.729000 1 18FFA413x Rx d 8 1C FF 10 01 05 00 00 00 
75116.729000 1 18FF6927x Rx d 8 FF 00 06 00 00 00 00 00 
75116.729000 1 18FEF71Ex Rx d 8 00 00 00 00 EA 01 00 00 
75116.729000 1 18FF8427x Rx d 8 1C 00 09 1C 00 E5 07 00 
75116.731000 1 268 Rx d 7 4E B6 23 00 00 00 00 
75116.733000 1 18FF6C27x Rx d 8 0D FF 00 00 00 00 00 00 
75116.736000 1 18FF1027x Rx d 5 00 00 00 00 00 
75116.736000 1 615 Rx d 8 00 00 00 00 00 00 00 00 
75116.737000 1 18FF1727x Rx d 8 00 00 00 00 41 10 00 00 
75116.737000 1 1D9 Rx d 8 34 00 03 00 00 00 00 00 
75116.737000 1 18FF8379x Rx d 8 07 10 00 00 10 00 00 00 
75116.740000 1 18FF6A27x Rx d 8 00 00 00 00 00 00 00 06 
75116.740000 1 18FF7027x Rx d 8 7A 5C 01 5C 0D 00 00 00 
75116.740000 1 18FF6D27x Rx d 8 04 54 58 52 09 21 04 11 
75116.740000 1 086 Rx d 8 0D 00 00 00 00 00 00 00 
75116.741000 1 CFF1227x Rx d 8 00 D0 07 00 00 00 00 00 
75116.741000 1 268 Rx d 7 4F B6 23 00 00 00 00 
75116.741000 1 CF11227x Rx d 8 01 34 08 00 00 00 00 00 
75116.741000 1 C00F327x Rx d 8 00 02 28 28 28 28 00 20 
75116.742000 1 18FF4527x Rx d 8 3D 3B 32 00 00 28 3C 80 
75116.742000 1 18FEF71Ex Rx d 8 00 00 00 00 EA 01 00 00 
75116.742000 1 18FF8227x Rx d 8 0D 00 01 02 00 02 01 00 
75116.743000 1 18FF6E27x Rx d 8 00 00 00 00 00 00 00 00 
75116.746000 1 18FF1027x Rx d 5 00 00 00 00 00 
75116.746000 1 615 Rx d 8 00 00 00 00 00 00 00 00 
75116.747000 1 18FF1727x Rx d 8 00 00 00 00 41 10 00 00 
75116.747000 1 095 Tx d 8 00 00 00 00 00 00 00 00 
75116.747000 1 1D9 Rx d 8 34 00 03 00 00 00 00 00 
75116.747000 1 18FF8379x Rx d 8 18 10 00 00 10 00 00 00 
75116.749000 1 18FF6B27x Rx d 8 00 00 00 00 00 00 00 00 
75116.749000 1 18FF2027x Rx d 8 00 11 00 02 03 00 00 00 
75116.749000 1 18FFA527x Rx d 8 02 00 00 00 00 00 00 00 
75116.749000 1 18FEF71Ex Rx d 8 00 00 00 00 EA 01 00 00 
75116.750000 1 18FF8227x Rx d 8 0D 00 01 02 00 02 01 00 
75116.751000 1 268 Rx d 7 50 B6 23 00 00 00 00 
75116.753000 1 18FF6827x Rx d 8 00 00 00 00 00 00 01 01 
75116.755000 1 CF11365x Rx d 8 0E 00 00 00 00 00 00 00 
75116.756000 1 CF11465x Rx d 8 15 87 7F 7D 00 00 7F 7D 
75116.756000 1 066 Rx d 8 03 00 00 00 00 00 00 00 
75116.756000 1 18FF1027x Rx d 5 00 00 00 00 00 
75116.757000 1 615 Rx d 8 00 00 00 00 00 00 00 00 
75116.757000 1 18FF1727x Rx d 8 00 00 00 00 41 10 00 00 
75116.757000 1 1D9 Rx d 8 34 00 03 00 00 00 00 00 
75116.757000 1 18FF8379x Rx d 8 09 A1 01 08 00 00 00 00 
75116.758000 1 27F72B6x Rx d 8 00 00 00 00 00 00 00 00 
75116.758000 1 18FF2013x Rx d 8 04 E0 00 04 00 68 00 00 
75116.758000 1 18FFA413x Rx d 8 1C FF 10 01 06 00 00 00 
75116.759000 1 18FF6927x Rx d 8 FF 00 06 00 00 00 00 00 
75116.759000 1 18FF8227x Rx d 8 0D 00 01 02 00 02 01 00 
75116.759000 1 18FEF71Ex Rx d 8 00 00 00 00 EB 01 00 00 
75116.760000 1 400 Rx d 8 00 00 00 00 00 00 00 00 
75116.761000 1 268 Rx d 7 51 B6 23 00 00 00 00 
75116.762000 1 CF11366x Rx d 8 0E 00 00 00 00 00 00 00 
75116.763000 1 CF11466x Rx d 8 1B 87 7F 7D 00 00 80 7D 
75116.763000 1 18FF6C27x Rx d 8 0D FF 00 00 00 00 00 00 
75116.765000 1 095 Tx d 8 00 00 00 00 00 00 00 00 
75116.767000 1 18FF8C13x Rx d 8 0D 00 00 00 00 00 00 00 
75116.768000 1 18FF1027x Rx d 5 00 00 00 00 00 
75116.768000 1 A100101x Rx d 1 E3 
75116.769000 1 615 Rx d 8 00 00 00 00 00 00 00 00 
75116.769000 1 A100100x Rx d 8 E3 24 FF FC 05 00 07 05 
75116.769000 1 18FEF71Ex Rx d 8 00 00 00 00 EB 01 00 00 
75116.770000 1 18FF1727x Rx d 8 00 00 00 00 41 10 00 00 
75116.770000 1 18FF5838x Rx d 8 06 00 00 00 37 00 00 00 
75116.770000 1 7149Ax Rx d 8 00 00 00 00 00 00 00 00 
75116.770000 1 069 Rx d 8 00 00 00 00 00 00 00 00 
75116.771000 1 C01FEFEx Rx d 8 00 00 00 00 00 00 00 00 
75116.771000 1 1D9 Rx d 8 34 00 03 00 00 00 00 00 
75116.771000 1 268 Rx d 7 52 B6 23 00 00 00 00 
75116.771000 1 18FF6A27x Rx d 8 00 00 00 00 00 00 00 06 
75116.772000 1 18FF8227x Rx d 8 0D 00 01 02 00 02 01 00 
75116.772000 1 18FF8379x Rx d 8 0A 00 00 00 00 00 00 00 
75116.772000 1 18FF8479x Rx d 8 01 00 00 00 00 00 00 00 
75116.773000 1 27F72BAx Rx d 8 29 40 05 18 0B 00 00 00 
75116.773000 1 610 Rx d 8 00 00 00 00 00 00 00 00 
75116.773000 1 18FF6E27x Rx d 8 00 00 00 00 00 00 00 00 
75116.776000 1 18FF1027x Rx d 5 00 00 00 00 00 
75116.776000 1 615 Rx d 8 00 00 00 00 00 00 00 00 
75116.777000 1 18FF1727x Rx d 8 00 00 00 00 41 10 00 00 
75116.777000 1 1D9 Rx d 8 34 00 03 00 00 00 00 00 
75116.777000 1 18FF8379x Rx d 8 0B 00 00 00 40 08 00 00 
75116.779000 1 18FF6B27x Rx d 8 00 00 00 00 00 00 00 00 
75116.779000 1 18FF2027x Rx d 8 00 11 00 02 04 00 00 00 
75116.779000 1 18FFA527x Rx d 8 02 00 00 00 00 00 00 00 
75116.780000 1 18FEF71Ex Rx d 8 00 00 00 00 EA 01 00 00 
75116.780000 1 18FF8227x Rx d 8 0D 00 01 02 00 02 01 00 
75116.781000 1 095 Tx d 8 00 00 00 00 00 00 00 00 
75116.781000 1 268 Rx d 7 53 B6 23 00 00 00 00 
75116.783000 1 18FF6827x Rx d 8 00 00 00 00 00 00 01 01 
75116.786000 1 066 Rx d 8 04 00 00 00 00 00 00 00 
75116.786000 1 18FF1027x Rx d 5 00 00 00 00 00 
75116.787000 1 615 Rx d 8 00 00 00 00 00 00 00 00 
75116.787000 1 18FF1727x Rx d 8 00 00 00 00 41 10 00 00 
75116.787000 1 1D9 Rx d 8 34 00 03 00 00 00 00 00 
75116.787000 1 18FF8379x Rx d 8 AC 73 15 06 40 10 40 10 
75116.788000 1 27F72B6x Rx d 8 41 00 00 00 00 00 00 00 
75116.788000 1 18FF2013x Rx d 8 04 E0 00 04 00 78 00 00 
75116.788000 1 18FFA413x Rx d 8 1C FF 10 01 07 00 00 00 
75116.789000 1 18FF6927x Rx d 8 FF 00 06 00 00 00 00 00 
75116.789000 1 18FF8327x Rx d 8 59 00 00 00 00 00 00 00 
75116.789000 1 18FEF71Ex Rx d 8 00 00 00 00 EB 01 00 00 
75116.791000 1 268 Rx d 7 54 B6 23 00 00 00 00 
75116.793000 1 18FF6C27x Rx d 8 0D FF 00 00 00 00 00 00 
75116.796000 1 18FF1027x Rx d 5 00 00 00 00 00 
75116.796000 1 615 Rx d 8 00 00 00 00 00 00 00 00 
75116.797000 1 18FF1727x Rx d 8 00 00 00 00 41 10 00 00 
75116.797000 1 1D9 Rx d 8 34 00 03 00 00 00 00 00 
75116.797000 1 18FF8379x Rx d 8 1D 04 66 18 60 04 01 00 
75116.798000 1 095 Tx d 8 00 00 00 00 00 00 00 00 
75116.799000 1 18FF6A27x Rx d 8 00 00 00 00 00 00 00 06 
75116.799000 1 18FF8327x Rx d 8 59 00 00 00 00 00 00 00 
75116.799000 1 18FEF71Ex Rx d 8 00 00 00 00 EA 01 00 00 
75116.801000 1 268 Rx d 7 55 B6 23 00 00 00 00 
75116.803000 1 18FF6E27x Rx d 8 00 00 00 00 00 00 00 00 
75116.804000 1 C0027F3x Rx d 8 08 D0 07 7D 00 10 28 61 
75116.804000 1 101227F3x Rx d 8 11 0F 0F 16 0A 0F 04 05 
75116.804000 1 101627F3x Rx d 8 3D 0B 02 3B 0E 06 00 00 
75116.805000 1 182027F3x Rx d 8 FC 02 00 00 76 11 5A 19 
75116.805000 1 182127F3x Rx d 8 BC 1B B2 11 64 0A 63 00 
75116.805000 1 182227F3x Rx d 8 02 00 00 7D 00 7D 00 00 
75116.805000 1 182327F3x Rx d 8 44 01 42 18 DA 07 07 00 
75116.806000 1 182627F3x Rx d 8 3C 19 32 00 00 7D 00 7D 
75116.806000 1 101027F3x Rx d 8 00 00 00 00 00 00 00 00 
75116.806000 1 10000111x Rx d 8 C0 C0 C0 C0 C0 C0 01 00 
75116.806000 1 18FF1027x Rx d 5 00 00 00 00 00 
75116.807000 1 615 Rx d 8 00 00 00 00 00 00 00 00 
75116.807000 1 18FF1727x Rx d 8 00 00 00 00 41 10 00 00 
75116.807000 1 1D9 Rx d 8 34 00 03 00 00 00 00 00 
75116.808000 1 18FF8379x Rx d 8 0E 00 20 CF EB FF FF 00 
75116.809000 1 18FF6B27x Rx d 8 00 00 00 00 00 00 00 00 
75116.809000 1 18FF2027x Rx d 8 00 11 00 02 05 00 00 00 
75116.809000 1 18FFA527x Rx d 8 02 00 00 00 00 00 00 00 
75116.810000 1 18FEF71Ex Rx d 8 00 00 00 00 EB 01 00 00 
75116.810000 1 18FF8327x Rx d 8 59 00 00 00 00 00 00 00 
75116.811000 1 268 Rx d 7 56 B6 23 00 00 00 00 
75116.813000 1 18FF6827x Rx d 8 00 00 00 00 00 00 01 01 
75116.816000 1 095 Tx d 8 00 00 00 00 00 00 00 00 
75116.816000 1 066 Rx d 8 05 00 00 00 00 00 00 00 
75116.816000 1 18FF1027x Rx d 5 00 00 00 00 00 
75116.817000 1 615 Rx d 8 00 00 00 00 00 00 00 00 
75116.817000 1 18FF1727x Rx d 8 00 00 00 00 41 10 00 00 
75116.817000 1 C01FEFEx Rx d 8 00 00 00 00 00 00 00 00 
75116.817000 1 1D9 Rx d 8 34 00 03 00 00 00 00 00 
75116.818000 1 18FF8379x Rx d 8 10 00 00 00 40 00 40 00 
75116.818000 1 27F72B6x Rx d 8 02 00 00 00 00 00 00 00 
75116.818000 1 18FF2013x Rx d 8 04 E0 00 04 00 08 00 00 
75116.819000 1 18FFA413x Rx d 8 1C FF 10 01 00 00 00 00 
75116.819000 1 18FF6927x Rx d 8 FF 00 06 00 00 00 00 00 
75116.819000 1 18FEF71Ex Rx d 8 00 00 00 00 EA 01 00 00 
75116.819000 1 18FF8327x Rx d 8 59 00 00 00 00 00 00 00 
75116.821000 1 268 Rx d 7 57 B6 23 00 00 00 00 
75116.823000 1 18FF6C27x Rx d 8 0D FF 00 00 00 00 00 00 
75116.826000 1 18FF1027x Rx d 5 00 00 00 00 00 
75116.826000 1 615 Rx d 8 00 00 00 00 00 00 00 00 
75116.827000 1 18FF1727x Rx d 8 00 00 00 00 41 10 00 00 
75116.827000 1 1D9 Rx d 8 34 00 03 00 00 00 00 00 
75116.827000 1 18FF8379x Rx d 8 01 00 00 00 00 00 00 00 
75116.829000 1 18FF6A27x Rx d 8 00 00 00 00 00 00 00 06 
75116.829000 1 18FF8327x Rx d 8 59 00 00 00 00 00 00 00 
75116.829000 1 18FEF71Ex Rx d 8 00 00 00 00 EA 01 00 00 
75116.831000 1 268 Rx d 7 58 B6 23 00 00 00 00 
75116.833000 1 095 Tx d 8 00 00 00 00 00 00 00 00 
75116.833000 1 18FF6E27x Rx d 8 00 00 00 00 00 00 00 00 
75116.836000 1 18FF1027x Rx d 5 00 00 00 00 00 
75116.836000 1 615 Rx d 8 00 00 00 00 00 00 00 00 
75116.837000 1 18FF1727x Rx d 8 00 00 00 00 41 10 00 00 
75116.837000 1 1D9 Rx d 8 34 00 03 00 00 00 00 00 
75116.837000 1 18FF8379x Rx d 8 02 00 60 08 00 00 00 00 
75116.839000 1 18FF6B27x Rx d 8 00 00 00 00 00 00 00 00 
75116.840000 1 18FF6D27x Rx d 8 04 54 60 52 09 21 04 11 
75116.840000 1 086 Rx d 8 0D 00 00 00 00 00 00 00 
75116.840000 1 CFF1227x Rx d 8 00 D0 07 00 00 00 00 00 
75116.840000 1 CF11227x Rx d 8 01 34 08 00 00 00 00 00 
75116.841000 1 C00F327x Rx d 8 00 02 28 28 28 28 40 20 
75116.841000 1 268 Rx d 7 59 B6 23 00 00 00 00 
75116.841000 1 18FF2027x Rx d 8 00 11 00 02 06 00 00 00 
75116.842000 1 18FFA527x Rx d 8 02 00 00 00 00 00 00 00 
75116.842000 1 18FEF71Ex Rx d 8 00 00 00 00 EB 01 00 00 
75116.842000 1 18FF8427x Rx d 8 1C 00 09 1C 00 E5 07 00 
75116.843000 1 18FF6827x Rx d 8 00 00 00 00 00 00 01 01 
75116.846000 1 066 Rx d 8 06 00 00 00 00 00 00 00 
75116.846000 1 18FF1027x Rx d 5 00 00 00 00 00 
75116.847000 1 615 Rx d 8 00 00 00 00 00 00 00 00 
75116.847000 1 18FF1727x Rx d 8 00 00 00 00 41 10 00 00 
75116.847000 1 1D9 Rx d 8 34 00 03 00 00 00 00 00 
75116.847000 1 18FF8379x Rx d 8 03 00 20 00 00 00 00 00 
75116.848000 1 27F72B6x Rx d 8 03 00 00 00 00 00 00 00 
75116.848000 1 18FF2013x Rx d 8 04 E0 00 04 00 18 00 00 
75116.848000 1 18FFA413x Rx d 8 1C FF 10 01 01 00 00 00 
75116.849000 1 18FF6927x Rx d 8 FF 00 06 00 00 00 00 00 
75116.849000 1 18FF8427x Rx d 8 1C 00 09 1C 00 E5 07 00 
75116.849000 1 095 Tx d 8 00 00 00 00 00 00 00 00 
75116.849000 1 18FEF71Ex Rx d 8 00 00 00 00 EB 01 00 00 
75116.851000 1 268 Rx d 7 5A B6 23 00 00 00 00 
75116.853000 1 18FF6C27x Rx d 8 0D FF 00 00 00 00 00 00 
75116.856000 1 CF11365x Rx d 8 0E 00 00 00 00 00 00 00 
75116.856000 1 CF11465x Rx d 8 15 87 7F 7D 00 00 7F 7D 
75116.856000 1 18FF1027x Rx d 5 00 00 00 00 00 
75116.856000 1 615 Rx d 8 00 00 00 00 00 00 00 00 
75116.857000 1 18FF1727x Rx d 8 00 00 00 00 41 10 00 00 
75116.857000 1 1D9 Rx d 8 34 00 03 00 00 00 00 00 
75116.857000 1 18FF8379x Rx d 8 04 00 00 00 00 00 00 00 
75116.859000 1 18FF6A27x Rx d 8 00 00 00 00 00 00 00 06 
75116.859000 1 18FF8427x Rx d 8 1C 00 09 1C 00 E5 07 00 
75116.859000 1 18FEF71Ex Rx d 8 00 00 00 00 EA 01 00 00 
75116.860000 1 400 Rx d 8 00 00 00 00 00 00 00 00 
75116.861000 1 268 Rx d 7 5B B6 23 00 00 00 00 
75116.862000 1 CF11366x Rx d 8 0E 00 00 00 00 00 00 00 
75116.862000 1 CF11466x Rx d 8 18 87 7F 7D 00 00 7F 7D 
75116.863000 1 18FF6E27x Rx d 8 00 00 00 00 00 00 00 00 
75116.866000 1 095 Tx d 8 00 00 00 00 00 00 00 00 
75116.867000 1 18FF8C13x Rx d 8 0D 00 00 00 00 00 00 00 
75116.868000 1 18FF1027x Rx d 5 00 00 00 00 00 
75116.869000 1 615 Rx d 8 00 00 00 00 00 00 00 00 
75116.869000 1 18FF1727x Rx d 8 00 00 00 00 41 10 00 00 
75116.869000 1 18FF2027x Rx d 8 00 11 00 02 07 00 00 00 
75116.869000 1 18FFA527x Rx d 8 02 00 00 00 00 00 00 00 
75116.870000 1 18FEF71Ex Rx d 8 00 00 00 00 EA 01 00 00 
75116.870000 1 18FF5838x Rx d 8 06 00 00 00 37 00 00 00 
75116.870000 1 7149Ax Rx d 8 00 00 00 00 00 00 00 00 
75116.870000 1 069 Rx d 8 00 00 00 00 00 00 00 00 
75116.871000 1 C01FEFEx Rx d 8 00 00 00 00 00 00 00 00 
75116.871000 1 1D9 Rx d 8 34 00 03 00 00 00 00 00 
75116.871000 1 268 Rx d 7 5C B6 23 00 00 00 00 
75116.872000 1 18FF6B27x Rx d 8 00 00 00 00 00 00 00 00 
75116.872000 1 18FF8379x Rx d 8 05 00 00 0E 00 00 10 02 
75116.872000 1 18FF8427x Rx d 8 1C 00 09 1C 00 E5 07 00 
75116.872000 1 18FF8479x Rx d 8 01 00 00 00 00 00 00 00 
75116.873000 1 27F72BAx Rx d 8 2C 00 00 00 10 00 00 00 
75116.873000 1 610 Rx d 8 00 00 00 00 00 00 00 00 
75116.873000 1 18FF6827x Rx d 8 00 00 00 00 00 00 01 01 
75116.876000 1 066 Rx d 8 07 00 00 00 00 00 00 00 
75116.876000 1 18FF1027x Rx d 5 00 00 00 00 00 
75116.877000 1 615 Rx d 8 00 00 00 00 00 00 00 00 
75116.877000 1 18FF1727x Rx d 8 00 00 00 00 41 10 00 00 
75116.877000 1 1D9 Rx d 8 34 00 03 00 00 00 00 00 
75116.878000 1 18FF8379x Rx d 8 06 00 00 00 00 00 00 00 
75116.878000 1 27F72B6x Rx d 8 14 00 00 00 00 00 00 00 
75116.878000 1 18FF2013x Rx d 8 04 E0 00 04 00 28 00 00 
75116.878000 1 18FFA413x Rx d 8 1C FF 10 01 02 00 00 00 
75116.879000 1 A100101x Rx d 1 E5 
75116.879000 1 18FF6927x Rx d 8 FF 00 06 00 00 00 00 00 
75116.879000 1 A100100x Rx d 8 E5 24 00 00 00 00 00 00 
75116.879000 1 18FEF71Ex Rx d 8 00 00 00 00 EB 01 00 00 
75116.880000 1 18FF8427x Rx d 8 1C 00 09 1C 00 E5 07 00 
75116.881000 1 268 Rx d 7 5D B6 23 00 00 00 00 
75116.883000 1 18FF6C27x Rx d 8 0D FF 00 00 00 00 00 00 
75116.886000 1 095 Tx d 8 00 00 00 00 00 00 00 00 
75116.886000 1 18FF1027x Rx d 5 00 00 00 00 00 
75116.887000 1 615 Rx d 8 00 00 00 00 00 00 00 00 
75116.887000 1 18FF1727x Rx d 8 00 00 00 00 41 10 00 00 
75116.887000 1 1D9 Rx d 8 34 00 03 00 00 00 00 00 
75116.887000 1 18FF8379x Rx d 8 07 10 00 00 10 00 00 00 
75116.889000 1 18FF6A27x Rx d 8 00 00 00 00 00 00 00 06 
75116.889000 1 18FF8427x Rx d 8 1C 00 09 1C 00 E5 07 00 
75116.889000 1 18FEF71Ex Rx d 8 00 00 00 00 EB 01 00 00 
75116.891000 1 268 Rx d 7 5E B6 23 00 00 00 00 
75116.893000 1 18FF6E27x Rx d 8 00 00 00 00 00 00 00 00 
75116.896000 1 18FF1027x Rx d 5 00 00 00 00 00 
75116.896000 1 615 Rx d 8 00 00 00 00 00 00 00 00 
75116.897000 1 18FF1727x Rx d 8 00 00 00 00 41 10 00 00 
75116.897000 1 1D9 Rx d 8 34 00 03 00 00 00 00 00 
75116.897000 1 18FF8379x Rx d 8 18 10 00 00 10 00 00 00 
75116.898000 1 A100101x Rx d 1 E5 
75116.899000 1 18FF6B27x Rx d 8 00 00 00 00 00 00 00 00 
75116.899000 1 A100100x Rx d 8 E5 24 00 00 00 00 00 00 
75116.899000 1 18FF2027x Rx d 8 00 11 00 02 00 00 00 00 
75116.900000 1 18FFA527x Rx d 8 02 00 00 00 00 00 00 00 
75116.900000 1 18FEF71Ex Rx d 8 00 00 00 00 EB 01 00 00 
75116.900000 1 18FF8427x Rx d 8 1C 00 09 1C 00 E5 07 00 
75116.901000 1 268 Rx d 7 5F B6 23 00 00 00 00 
75116.901000 1 095 Tx d 8 00 00 00 00 00 00 00 00 
75116.903000 1 18FF6827x Rx d 8 00 00 00 00 00 00 01 01 
75116.904000 1 C0027F3x Rx d 8 08 D0 07 7D 00 10 28 62 
75116.904000 1 101227F3x Rx d 8 11 0F 0F 16 0A 0F 04 05 
75116.904000 1 101627F3x Rx d 8 3D 0B 02 3B 0E 06 00 00 
75116.905000 1 182027F3x Rx d 8 FC 02 00 00 76 11 5A 19 
75116.905000 1 182127F3x Rx d 8 BC 1B B2 11 64 0A 63 00 
75116.905000 1 182227F3x Rx d 8 02 00 00 7D 00 7D 00 00 
75116.905000 1 182327F3x Rx d 8 44 01 42 18 DA 07 07 00 
75116.906000 1 182627F3x Rx d 8 3C 19 32 00 00 7D 00 7D 
75116.906000 1 101027F3x Rx d 8 00 00 00 00 00 00 00 00 
75116.906000 1 066 Rx d 8 00 00 00 00 00 00 00 00 
75116.907000 1 10000111x Rx d 8 C0 C0 C0 C0 C0 C0 01 00 
75116.907000 1 18FF1027x Rx d 5 00 00 00 00 00 
75116.907000 1 615 Rx d 8 00 00 00 00 00 00 00 00 
75116.907000 1 18FF1727x Rx d 8 00 00 00 00 41 10 00 00 
75116.908000 1 1D9 Rx d 8 34 00 03 00 00 00 00 00 
75116.908000 1 18FF8379x Rx d 8 09 A1 01 08 00 00 00 00 
75116.908000 1 27F72B6x Rx d 8 05 00 00 00 00 00 00 00 
75116.908000 1 18FF2013x Rx d 8 04 E0 00 04 00 38 00 00 
75116.909000 1 18FF6927x Rx d 8 FF 00 06 00 00 00 00 00 
75116.909000 1 18FEF71Ex Rx d 8 00 00 00 00 EA 01 00 00 
75116.909000 1 18FF8427x Rx d 8 1C 00 09 1C 00 E5 07 00 
75116.910000 1 18FFA413x Rx d 8 1C FF 10 01 03 00 00 00 
75116.911000 1 268 Rx d 7 60 B6 23 00 00 00 00 
75116.913000 1 18FF6C27x Rx d 8 0D FF 00 00 00 00 00 00 
75116.916000 1 18FF1027x Rx d 5 00 00 00 00 00 
75116.916000 1 615 Rx d 8 00 00 00 00 00 00 00 00 
75116.917000 1 18FF1727x Rx d 8 00 00 00 00 41 10 00 00 
75116.917000 1 C01FEFEx Rx d 8 00 00 00 00 00 00 00 00 
75116.917000 1 1D9 Rx d 8 34 00 03 00 00 00 00 00 
75116.918000 1 18FF8379x Rx d 8 0A 00 00 00 00 00 00 00 
75116.918000 1 A100101x Rx d 1 E5 
75116.919000 1 18FF6A27x Rx d 8 00 00 00 00 00 00 00 06 
75116.919000 1 A100100x Rx d 8 E5 24 00 00 00 00 00 00 
75116.919000 1 18FEF71Ex Rx d 8 00 00 00 00 EA 01 00 00 
75116.919000 1 18FF8427x Rx d 8 1C 00 09 1C 00 E5 07 00 
75116.920000 1 095 Tx d 8 00 00 00 00 00 00 00 00 
75116.921000 1 268 Rx d 7 61 B6 23 00 00 00 00 
75116.923000 1 18FF6E27x Rx d 8 00 00 00 00 00 00 00 00 
75116.926000 1 18FF1027x Rx d 5 00 00 00 00 00 
75116.926000 1 615 Rx d 8 00 00 00 00 00 00 00 00 
75116.927000 1 18FF1727x Rx d 8 00 00 00 00 41 10 00 00 
75116.927000 1 1D9 Rx d 8 34 00 03 00 00 00 00 00 
75116.927000 1 18FF8379x Rx d 8 0B 00 00 00 40 08 00 00 
75116.929000 1 18FF6B27x Rx d 8 00 00 00 00 00 00 00 00 
75116.929000 1 18FF2027x Rx d 8 00 11 00 02 01 00 00 00 
75116.929000 1 18FFA527x Rx d 8 02 00 00 00 00 00 00 00 
75116.930000 1 18FEF71Ex Rx d 8 00 00 00 00 EB 01 00 00 
75116.930000 1 18FF8427x Rx d 8 1C 00 09 1C 00 E5 07 00 
75116.931000 1 268 Rx d 7 62 B6 23 00 00 00 00 
75116.933000 1 18FF6827x Rx d 8 00 00 00 00 00 00 01 01 
75116.936000 1 066 Rx d 8 01 00 00 00 00 00 00 00 
75116.936000 1 18FF1027x Rx d 5 00 00 00 00 00 
75116.937000 1 615 Rx d 8 00 00 00 00 00 00 00 00 
75116.937000 1 18FF1727x Rx d 8 00 00 00 00 41 10 00 00 
75116.937000 1 1D9 Rx d 8 34 00 03 00 00 00 00 00 
75116.937000 1 18FF8379x Rx d 8 AC 73 15 06 40 10 40 10 
75116.938000 1 27F72B6x Rx d 8 06 00 00 00 00 00 00 00 
75116.938000 1 18FF2013x Rx d 8 04 E0 00 04 00 48 00 00 
75116.938000 1 18FFA413x Rx d 8 1C FF 10 01 04 00 00 00 
75116.939000 1 095 Tx d 8 00 00 00 00 00 00 00 00 
75116.939000 1 A100101x Rx d 1 E5 
75116.939000 1 18FF6927x Rx d 8 FF 00 06 00 00 00 00 00 
75116.940000 1 A100100x Rx d 8 E5 24 00 00 00 00 00 00 
75116.940000 1 086 Rx d 8 0D 00 00 00 00 00 00 00 
75116.940000 1 CFF1227x Rx d 8 00 D0 07 00 00 00 00 00 
75116.940000 1 CF11227x Rx d 8 01 34 08 00 00 00 00 00 
75116.941000 1 268 Rx d 7 63 B6 23 00 00 00 00 
75116.941000 1 C00F327x Rx d 8 00 02 28 28 28 28 80 20 
75116.941000 1 18FEF71Ex Rx d 8 00 00 00 00 EB 01 00 00 
75116.941000 1 18FF6D27x Rx d 8 04 54 64 52 09 21 04 11 
75116.942000 1 18FF8427x Rx d 8 1C 00 09 1C 00 E5 07 00 
75116.943000 1 18FF6C27x Rx d 8 0D FF 00 00 00 00 00 00 
75116.946000 1 18FF1027x Rx d 5 00 00 00 00 00 
75116.946000 1 615 Rx d 8 00 00 00 00 00 00 00 00 
75116.947000 1 18FF1727x Rx d 8 00 00 00 00 41 10 00 00 
75116.947000 1 1D9 Rx d 8 34 00 03 00 00 00 00 00 
75116.947000 1 18FF8379x Rx d 8 2D 06 66 18 60 04 01 00 
75116.949000 1 18FF6A27x Rx d 8 00 00 00 00 00 00 00 06 
75116.949000 1 18FF8427x Rx d 8 1C 00 09 1C 00 E5 07 00 
75116.949000 1 18FEF71Ex Rx d 8 00 00 00 00 EB 01 00 00 
75116.951000 1 268 Rx d 7 64 B6 23 00 00 00 00 
75116.953000 1 18FF6E27x Rx d 8 00 00 00 00 00 00 00 00 
75116.955000 1 CF11365x Rx d 8 0E 00 00 00 00 00 00 00 
75116.956000 1 CF11465x Rx d 8 16 87 7F 7D 00 00 7F 7D 
75116.956000 1 095 Tx d 8 00 00 00 00 00 00 00 00 
75116.956000 1 18FF1027x Rx d 5 00 00 00 00 00 
75116.957000 1 615 Rx d 8 00 00 00 00 00 00 00 00 
75116.957000 1 18FF1727x Rx d 8 00 00 00 00 41 10 00 00 
75116.957000 1 1D9 Rx d 8 34 00 03 00 00 00 00 00 
75116.957000 1 18FF8379x Rx d 8 0E 00 40 D3 EB FF FF 00 
75116.958000 1 A100101x Rx d 1 E5 
75116.959000 1 18FF6B27x Rx d 8 00 00 00 00 00 00 00 00 
75116.959000 1 A100100x Rx d 8 E5 24 00 00 00 00 00 00 
75116.959000 1 18FF2027x Rx d 8 00 11 00 02 02 00 00 00 
75116.960000 1 18FFA527x Rx d 8 02 00 00 00 00 00 00 00 
75116.960000 1 18FEF71Ex Rx d 8 00 00 00 00 EA 01 00 00 
75116.960000 1 18FF8427x Rx d 8 1C 00 09 1C 00 E5 07 00 
75116.960000 1 400 Rx d 8 00 00 00 00 00 00 00 00 
75116.961000 1 268 Rx d 7 65 B6 23 00 00 00 00 
75116.962000 1 CF11366x Rx d 8 0E 00 00 00 00 00 00 00 
75116.962000 1 CF11466x Rx d 8 17 87 7F 7D 00 00 7F 7D 
75116.963000 1 18FF6827x Rx d 8 00 00 00 00 00 00 01 01 
75116.967000 1 18FF8C13x Rx d 8 0D 00 00 00 00 00 00 00 
75116.968000 1 066 Rx d 8 02 00 00 00 00 00 00 00 
75116.968000 1 18FF1027x Rx d 5 00 00 00 00 00 
75116.969000 1 615 Rx d 8 00 00 00 00 00 00 00 00 
75116.969000 1 18FF1727x Rx d 8 00 00 00 00 41 10 00 00 
75116.969000 1 18FEF71Ex Rx d 8 00 00 00 00 EA 01 00 00 
75116.969000 1 18FF6927x Rx d 8 FF 00 06 00 00 00 00 00 
75116.970000 1 18FF5838x Rx d 8 06 00 00 00 37 00 00 00 
75116.970000 1 7149Ax Rx d 8 00 00 00 00 00 00 00 00 
75116.970000 1 069 Rx d 8 00 00 00 00 00 00 00 00 
75116.971000 1 C01FEFEx Rx d 8 00 00 00 00 00 00 00 00 
75116.971000 1 1D9 Rx d 8 34 00 03 00 00 00 00 00 
75116.971000 1 268 Rx d 7 66 B6 23 00 00 00 00 
75116.971000 1 18FF8379x Rx d 8 10 00 00 00 40 00 40 00 
75116.972000 1 18FF8427x Rx d 8 1C 00 09 1C 00 E5 07 00 
75116.972000 1 18FF8479x Rx d 8 01 00 00 00 00 00 00 00 
75116.972000 1 27F72BAx Rx d 8 2D 00 00 00 80 11 C0 00 
75116.973000 1 610 Rx d 8 00 00 00 00 00 00 00 00 
75116.973000 1 27F72B6x Rx d 8 87 00 00 00 00 00 00 00 
75116.973000 1 18FF2013x Rx d 8 04 E0 00 04 00 58 00 00 
75116.973000 1 18FFA413x Rx d 8 1C FF 10 01 05 00 00 00 
75116.974000 1 18FF6C27x Rx d 8 0D FF 00 00 00 00 00 00 
75116.975000 1 095 Tx d 8 00 00 00 00 00 00 00 00 
75116.976000 1 18FF1027x Rx d 5 00 00 00 00 00 
75116.976000 1 615 Rx d 8 00 00 00 00 00 00 00 00 
75116.977000 1 18FF1727x Rx d 8 00 00 00 00 41 10 00 00 
75116.977000 1 1D9 Rx d 8 34 00 03 00 00 00 00 00 
75116.977000 1 18FF8379x Rx d 8 01 00 00 00 00 00 00 00 
75116.979000 1 18FF6A27x Rx d 8 00 00 00 00 00 00 00 06 
75116.979000 1 18FF8427x Rx d 8 1C 00 09 1C 00 E5 07 00 
75116.979000 1 18FEF71Ex Rx d 8 00 00 00 00 EA 01 00 00 
75116.981000 1 268 Rx d 7 67 B6 23 00 00 00 00 
75116.983000 1 18FF6E27x Rx d 8 00 00 00 00 00 00 00 00 
75116.986000 1 18FF1027x Rx d 5 00 00 00 00 00 
75116.986000 1 615 Rx d 8 00 00 00 00 00 00 00 00 
75116.987000 1 18FF1727x Rx d 8 00 00 00 00 41 10 00 00 
75116.987000 1 1D9 Rx d 8 34 00 03 00 00 00 00 00 
75116.987000 1 18FF8379x Rx d 8 02 00 60 08 00 00 00 00 
75116.989000 1 18FF6B27x Rx d 8 00 00 00 00 00 00 00 00 
75116.989000 1 18FF2027x Rx d 8 00 11 00 02 03 00 00 00 
75116.989000 1 18FFA527x Rx d 8 02 00 00 00 00 00 00 00 
75116.990000 1 18FEF71Ex Rx d 8 00 00 00 00 EA 01 00 00 
75116.990000 1 18FF8427x Rx d 8 1C 00 09 1C 00 E5 07 00 
75116.991000 1 268 Rx d 7 68 B6 23 00 00 00 00 
75116.993000 1 18FF6827x Rx d 8 00 00 00 00 00 00 01 01 
75116.994000 1 095 Tx d 8 00 00 00 00 00 00 00 00 
75116.996000 1 066 Rx d 8 03 00 00 00 00 00 00 00 
75116.997000 1 18FF1027x Rx d 5 00 00 00 00 00 
75116.997000 1 615 Rx d 8 00 00 00 00 00 00 00 00 
75116.997000 1 18FF1727x Rx d 8 00 00 00 00 41 10 00 00 
75116.997000 1 1D9 Rx d 8 34 00 03 00 00 00 00 00 
75116.998000 1 18FF8379x Rx d 8 03 00 20 00 00 00 00 00 
75116.998000 1 27F72B6x Rx d 8 08 00 00 00 00 00 00 00 
75116.998000 1 18FF2013x Rx d 8 04 E0 00 04 00 68 00 00 
75116.998000 1 18FFA413x Rx d 8 1C FF 10 01 06 00 00 00 
75116.999000 1 18FF6927x Rx d 8 FF 00 06 00 00 00 00 00 
75116.999000 1 18FEF71Ex Rx d 8 00 00 00 00 EB 01 00 00 
75116.999000 1 18FF8427x Rx d 8 1C 00 09 1C 00 E5 07 00 
75117.001000 1 268 Rx d 7 69 B6 23 00 00 00 00 
75117.003000 1 18FF6C27x Rx d 8 0D FF 00 00 00 00 00 00 
75117.004000 1 C0027F3x Rx d 8 08 D0 07 7D 00 10 28 63 
75117.004000 1 101227F3x Rx d 8 11 0F 0F 16 0A 0F 04 05 
75117.004000 1 101627F3x Rx d 8 3D 0B 02 3B 0E 06 00 00 
75117.005000 1 182027F3x Rx d 8 FC 02 00 00 76 11 5A 19 
75117.005000 1 182127F3x Rx d 8 BC 1B B2 11 64 0A 63 00 
75117.005000 1 182227F3x Rx d 8 02 00 00 7D 00 7D 00 00 
75117.005000 1 182327F3x Rx d 8 44 01 42 18 DA 07 07 00 
75117.006000 1 182627F3x Rx d 8 3C 19 32 00 00 7D 00 7D 
75117.006000 1 101027F3x Rx d 8 00 00 00 00 00 00 00 00 
75117.006000 1 10000111x Rx d 8 C0 C0 C0 C0 C0 C0 01 00 
75117.007000 1 18FF1027x Rx d 5 00 00 00 00 00 
75117.007000 1 615 Rx d 8 00 00 00 00 00 00 00 00 
75117.007000 1 18FF1727x Rx d 8 00 00 00 00 41 10 00 00 
75117.007000 1 1D9 Rx d 8 34 00 03 00 00 00 00 00 
75117.008000 1 18FF8379x Rx d 8 04 00 00 00 00 00 00 00 
75117.009000 1 18FF6A27x Rx d 8 00 00 00 00 00 00 00 06 
75117.009000 1 18FF8427x Rx d 8 1C 00 09 1C 00 E5 07 00 
75117.009000 1 18FEF71Ex Rx d 8 00 00 00 00 EB 01 00 00 
75117.011000 1 268 Rx d 7 6A B6 23 00 00 00 00 
75117.013000 1 182427F3x Rx d 8 01 01 00 15 07 09 00 00 
75117.013000 1 182527F3x Rx d 8 94 01 94 01 00 00 00 00 
75117.014000 1 18FF6E27x Rx d 8 00 00 00 00 00 00 00 00 
75117.014000 1 095 Tx d 8 00 00 00 00 00 00 00 00 
75117.016000 1 18FF1027x Rx d 5 00 00 00 00 00 
75117.016000 1 615 Rx d 8 00 00 00 00 00 00 00 00 
75117.017000 1 18FF1727x Rx d 8 00 00 00 00 41 10 00 00 
75117.017000 1 C01FEFEx Rx d 8 00 00 00 00 00 00 00 00 
75117.017000 1 1D9 Rx d 8 34 00 03 00 00 00 00 00 
75117.017000 1 18FF8379x Rx d 8 05 00 00 0E 00 00 10 02 
75117.019000 1 18FF6B27x Rx d 8 00 00 00 00 00 00 00 00 
75117.019000 1 18FF2027x Rx d 8 00 11 00 02 04 00 00 00 
75117.019000 1 18FFA527x Rx d 8 02 00 00 00 00 00 00 00 
75117.020000 1 18FEF71Ex Rx d 8 00 00 00 00 EB 01 00 00 
75117.020000 1 18FF8427x Rx d 8 1C 00 09 1C 00 E5 07 00 
75117.021000 1 268 Rx d 7 6B B6 23 00 00 00 00 
75117.023000 1 18FF6827x Rx d 8 00 00 00 00 00 00 01 01 
75117.026000 1 066 Rx d 8 04 00 00 00 00 00 00 00 
75117.026000 1 18FF1027x Rx d 5 00 00 00 00 00 
75117.027000 1 615 Rx d 8 00 00 00 00 00 00 00 00 
75117.027000 1 18FF1727x Rx d 8 00 00 00 00 41 10 00 00 
75117.027000 1 1D9 Rx d 8 34 00 03 00 00 00 00 00 
75117.028000 1 18FF8379x Rx d 8 06 00 00 00 00 00 00 00 
75117.028000 1 27F72B6x Rx d 8 00 00 00 00 00 00 00 00 
75117.028000 1 18FF2013x Rx d 8 04 E0 00 04 00 78 00 00 
75117.028000 1 18FFA413x Rx d 8 1C FF 10 01 07 00 00 00 
75117.029000 1 18FF6927x Rx d 8 FF 00 06 00 00 00 00 00 
75117.029000 1 18FEF71Ex Rx d 8 00 00 00 00 EB 01 00 00 
75117.029000 1 18FF8427x Rx d 8 1C 00 09 1C 00 E5 07 00 
75117.031000 1 268 Rx d 7 6C B6 23 00 00 00 00 
75117.033000 1 095 Tx d 8 00 00 00 00 00 00 00 00 
75117.033000 1 18FF6C27x Rx d 8 0D FF 00 00 00 00 00 00 
75117.036000 1 18FF1027x Rx d 5 00 00 00 00 00 
75117.036000 1 615 Rx d 8 00 00 00 00 00 00 00 00 
75117.037000 1 18FF1727x Rx d 8 00 00 00 00 41 10 00 00 
75117.037000 1 1D9 Rx d 8 34 00 03 00 00 00 00 00 
75117.037000 1 18FF8379x Rx d 8 07 10 00 00 10 00 00 00 
75117.039000 1 18FF6A27x Rx d 8 00 00 00 00 00 00 00 06 
75117.040000 1 18FF6D27x Rx d 8 04 54 68 52 09 21 04 11 
75117.040000 1 18FF8427x Rx d 8 1C 00 09 1C 00 E5 07 00 
75117.040000 1 086 Rx d 8 0D 00 00 00 00 00 00 00 
75117.040000 1 CFF1227x Rx d 8 00 D0 07 00 00 00 00 00 
75117.041000 1 CF11227x Rx d 8 01 34 08 00 00 00 00 00 
75117.041000 1 268 Rx d 7 6D B6 23 00 00 00 00 
75117.041000 1 C00F327x Rx d 8 00 02 28 28 28 28 C0 20 
75117.042000 1 18FEF71Ex Rx d 8 00 00 00 00 EA 01 00 00 
75117.043000 1 18FF6E27x Rx d 8 00 00 00 00 00 00 00 00 
75117.046000 1 18FF1027x Rx d 5 00 00 00 00 00 
75117.047000 1 615 Rx d 8 00 00 00 00 00 00 00 00 
75117.047000 1 18FF1727x Rx d 8 00 00 00 00 41 10 00 00 
75117.047000 1 1D9 Rx d 8 34 00 03 00 00 00 00 00 
75117.047000 1 18FF8379x Rx d 8 18 10 00 00 10 00 00 00 
75117.049000 1 18FF6B27x Rx d 8 00 00 00 00 00 00 00 00 
75117.049000 1 18FF2027x Rx d 8 00 11 00 02 05 00 00 00 
75117.049000 1 18FFA527x Rx d 8 02 00 00 00 00 00 00 00 
75117.050000 1 18FEF71Ex Rx d 8 00 00 00 00 EB 01 00 00 
75117.050000 1 18FF8427x Rx d 8 1C 00 09 1C 00 E5 07 00 
75117.051000 1 268 Rx d 7 6E B6 23 00 00 00 00 
75117.051000 1 095 Tx d 8 00 00 00 00 00 00 00 00 
75117.053000 1 18FF6827x Rx d 8 00 00 00 00 00 00 01 01 
75117.055000 1 CF11365x Rx d 8 0E 00 00 00 00 00 00 00 
75117.056000 1 CF11465x Rx d 8 13 87 7F 7D 00 00 7F 7D 
75117.056000 1 066 Rx d 8 05 00 00 00 00 00 00 00 
75117.056000 1 18FF1027x Rx d 5 00 00 00 00 00 
75117.057000 1 615 Rx d 8 00 00 00 00 00 00 00 00 
75117.057000 1 18FF1727x Rx d 8 00 00 00 00 41 10 00 00 
75117.057000 1 1D9 Rx d 8 34 00 03 00 00 00 00 00 
75117.058000 1 18FF8379x Rx d 8 09 A1 01 08 00 00 00 00 
75117.058000 1 27F72B6x Rx d 8 41 00 00 00 00 00 00 00 
75117.058000 1 18FF2013x Rx d 8 04 E0 00 04 00 08 00 00 
75117.058000 1 18FFA413x Rx d 8 1C FF 10 01 00 00 00 00 
75117.059000 1 18FF6927x Rx d 8 FF 00 06 00 00 00 00 00 
75117.059000 1 18FF8427x Rx d 8 1C 00 09 1C 00 E5 07 00 
75117.059000 1 18FEF71Ex Rx d 8 00 00 00 00 EB 01 00 00 
75117.060000 1 400 Rx d 8 00 00 00 00 00 00 00 00 
75117.061000 1 268 Rx d 7 6F B6 23 00 00 00 00 
75117.062000 1 CF11366x Rx d 8 0E 00 00 00 00 00 00 00 
75117.063000 1 CF11466x Rx d 8 1D 87 7F 7D 00 00 7F 7D 
75117.063000 1 18FF6C27x Rx d 8 0D FF 00 00 00 00 00 00 
75117.067000 1 18FF8C13x Rx d 8 0D 00 00 00 00 00 00 00 
75117.068000 1 18FF1027x Rx d 5 00 00 00 00 00 
75117.069000 1 615 Rx d 8 00 00 00 00 00 00 00 00 
75117.069000 1 18FF1727x Rx d 8 00 00 00 00 41 10 00 00 
75117.069000 1 18FEF71Ex Rx d 8 00 00 00 00 EB 01 00 00 
75117.069000 1 18FF6A27x Rx d 8 00 00 00 00 00 00 00 06 
75117.070000 1 095 Tx d 8 00 00 00 00 00 00 00 00 
75117.070000 1 18FF5838x Rx d 8 06 00 00 00 37 00 00 00 
75117.070000 1 7149Ax Rx d 8 00 00 00 00 00 00 00 00 
75117.071000 1 069 Rx d 8 00 00 00 00 00 00 00 00 
75117.071000 1 268 Rx d 7 70 B6 23 00 00 00 00 
75117.071000 1 C01FEFEx Rx d 8 00 00 00 00 00 00 00 00 
75117.071000 1 1D9 Rx d 8 34 00 03 00 00 00 00 00 
75117.072000 1 18FF8379x Rx d 8 0A 00 00 00 00 00 00 00 
75117.072000 1 18FF8427x Rx d 8 1C 00 09 1C 00 E5 07 00 
75117.072000 1 18FF8479x Rx d 8 01 00 00 00 00 00 00 00 
75117.072000 1 27F72BAx Rx d 8 08 00 00 90 A1 00 00 00 
75117.073000 1 610 Rx d 8 00 00 00 00 00 00 00 00 
75117.073000 1 18FF6E27x Rx d 8 00 00 00 00 00 00 00 00 
75117.076000 1 18FF1027x Rx d 5 00 00 00 00 00 
75117.076000 1 615 Rx d 8 00 00 00 00 00 00 00 00 
75117.077000 1 18FF1727x Rx d 8 00 00 00 00 41 10 00 00 
75117.077000 1 1D9 Rx d 8 34 00 03 00 00 00 00 00 
75117.077000 1 18FF8379x Rx d 8 0B 00 00 00 40 08 00 00 
75117.078000 1 A100101x Rx d 1 E0 
75117.079000 1 18FF6B27x Rx d 8 00 00 00 00 00 00 00 00 
75117.079000 1 A100100x Rx d 8 E0 24 0B 19 04 01 27 0F 
75117.079000 1 18FF2027x Rx d 8 00 11 00 02 06 00 00 00 
75117.080000 1 18FFA527x Rx d 8 02 00 00 00 00 00 00 00 
75117.080000 1 18FEF71Ex Rx d 8 00 00 00 00 EB 01 00 00 
75117.080000 1 18FF8427x Rx d 8 1C 00 09 1C 00 E5 07 00 
75117.081000 1 268 Rx d 7 71 B6 23 00 00 00 00 
75117.083000 1 18FF6827x Rx d 8 00 00 00 00 00 00 01 01 
75117.086000 1 066 Rx d 8 06 00 00 00 00 00 00 00 
75117.086000 1 18FF1027x Rx d 5 00 00 00 00 00 
75117.087000 1 615 Rx d 8 00 00 00 00 00 00 00 00 
75117.087000 1 18FF1727x Rx d 8 00 00 00 00 41 10 00 00 
75117.087000 1 1D9 Rx d 8 34 00 03 00 00 00 00 00 
75117.088000 1 18FF8379x Rx d 8 AC 73 15 06 40 10 40 10 
75117.088000 1 095 Tx d 8 00 00 00 00 00 00 00 00 
75117.088000 1 27F72B6x Rx d 8 02 00 00 00 00 00 00 00 
75117.088000 1 18FF2013x Rx d 8 04 E0 00 04 00 18 00 00 
75117.089000 1 18FFA413x Rx d 8 1C FF 10 01 01 00 00 00 
75117.089000 1 18FF6927x Rx d 8 FF 00 06 00 00 00 00 00 
75117.089000 1 18FEF71Ex Rx d 8 00 00 00 00 EB 01 00 00 
75117.090000 1 18FF8427x Rx d 8 1C 00 09 1C 00 E5 07 00 
75117.091000 1 268 Rx d 7 72 B6 23 00 00 00 00 
75117.093000 1 18FF6C27x Rx d 8 0D FF 00 00 00 00 00 00 
75117.096000 1 18FF1027x Rx d 5 00 00 00 00 00 
75117.096000 1 615 Rx d 8 00 00 00 00 00 00 00 00 
75117.097000 1 18FF1727x Rx d 8 00 00 00 00 41 10 00 00 
75117.097000 1 1D9 Rx d 8 34 00 03 00 00 00 00 00 
75117.097000 1 18FF8379x Rx d 8 2D 06 66 18 60 04 01 00 
75117.099000 1 18FF6A27x Rx d 8 00 00 00 00 00 00 00 06 
75117.099000 1 18FF8427x Rx d 8 1C 00 09 1C 00 E5 07 00 
75117.099000 1 18FEF71Ex Rx d 8 00 00 00 00 EB 01 00 00 
75117.101000 1 268 Rx d 7 73 B6 23 00 00 00 00 
75117.103000 1 18FF6E27x Rx d 8 00 00 00 00 00 00 00 00 
75117.104000 1 C0027F3x Rx d 8 08 D0 07 7D 00 10 28 64 
75117.104000 1 101227F3x Rx d 8 11 0F 0F 16 0A 0F 04 05 
75117.104000 1 101627F3x Rx d 8 3D 0B 02 3B 0E 06 00 00 
75117.105000 1 182027F3x Rx d 8 FC 02 00 00 76 11 5A 19 
75117.105000 1 182127F3x Rx d 8 BC 1B B2 11 64 0A 63 00 
75117.105000 1 182227F3x Rx d 8 02 00 00 7D 00 7D 00 00 
75117.105000 1 182327F3x Rx d 8 44 01 42 18 DA 07 07 00 
75117.106000 1 182627F3x Rx d 8 3C 19 3C 00 00 7D 00 7D 
75117.106000 1 101027F3x Rx d 8 00 00 00 00 00 00 00 00 
75117.106000 1 10000111x Rx d 8 C0 C0 C0 C0 C0 C0 01 00 
75117.107000 1 095 Tx d 8 00 00 00 00 00 00 00 00 
75117.107000 1 18FF1027x Rx d 5 00 00 00 00 00 
75117.107000 1 615 Rx d 8 00 00 00 00 00 00 00 00 
75117.107000 1 18FF1727x Rx d 8 00 00 00 00 41 10 00 00 
75117.108000 1 1D9 Rx d 8 34 00 03 00 00 00 00 00 
75117.108000 1 18FF8379x Rx d 8 0E 00 40 D3 EB FF FF 00 
75117.109000 1 18FF6B27x Rx d 8 00 00 00 00 00 00 00 00 
75117.109000 1 18FF2027x Rx d 8 00 11 00 02 07 00 00 00 
75117.109000 1 18FFA527x Rx d 8 02 00 00 00 00 00 00 00 
75117.110000 1 18FEF71Ex Rx d 8 00 00 00 00 EB 01 00 00 
75117.110000 1 18FF8427x Rx d 8 1C 00 09 1C 00 E5 07 00 
75117.111000 1 268 Rx d 7 74 B6 23 00 00 00 00 
75117.113000 1 18FF6827x Rx d 8 00 00 00 00 00 00 01 01 
75117.116000 1 066 Rx d 8 07 00 00 00 00 00 00 00 
75117.117000 1 18FF1027x Rx d 5 00 00 00 00 00 
75117.117000 1 615 Rx d 8 00 00 00 00 00 00 00 00 
75117.117000 1 18FF1727x Rx d 8 00 00 00 00 41 10 00 00 
75117.117000 1 C01FEFEx Rx d 8 00 00 00 00 00 00 00 00 
75117.118000 1 1D9 Rx d 8 34 00 03 00 00 00 00 00 
75117.118000 1 18FF8379x Rx d 8 10 00 00 00 40 00 40 00 
75117.118000 1 27F72B6x Rx d 8 03 00 00 00 00 00 00 00 
75117.118000 1 18FF2013x Rx d 8 04 E0 00 04 00 28 00 00 
75117.119000 1 18FF6927x Rx d 8 FF 00 06 00 00 00 00 00 
75117.119000 1 18FEF71Ex Rx d 8 00 00 00 00 EB 01 00 00 
75117.119000 1 18FF8427x Rx d 8 1C 00 09 1C 00 E5 07 00 
75117.120000 1 18FFA413x Rx d 8 1C FF 10 01 02 00 00 00 
75117.121000 1 268 Rx d 7 75 B6 23 00 00 00 00 
75117.123000 1 18FF6C27x Rx d 8 0D FF 00 00 00 00 00 00 
75117.125000 1 095 Tx d 8 00 00 00 00 00 00 00 00 
75117.126000 1 18FF1027x Rx d 5 00 00 00 00 00 
75117.126000 1 615 Rx d 8 00 00 00 00 00 00 00 00 
75117.127000 1 18FF1727x Rx d 8 00 00 00 00 41 10 00 00 
75117.127000 1 1D9 Rx d 8 34 00 03 00 00 00 00 00 
75117.127000 1 18FF8379x Rx d 8 01 00 00 00 00 00 00 00 
75117.129000 1 18FF6A27x Rx d 8 00 00 00 00 00 00 00 06 
75117.129000 1 18FF8427x Rx d 8 1C 00 09 1C 00 E5 07 00 
75117.129000 1 18FEF71Ex Rx d 8 00 00 00 00 EB 01 00 00 
75117.131000 1 268 Rx d 7 76 B6 23 00 00 00 00 
75117.133000 1 18FF6E27x Rx d 8 00 00 00 00 00 00 00 00 
75117.136000 1 18FF1027x Rx d 5 00 00 00 00 00 
75117.136000 1 615 Rx d 8 00 00 00 00 00 00 00 00 
75117.137000 1 18FF1727x Rx d 8 00 00 00 00 41 10 00 00 
75117.137000 1 1D9 Rx d 8 34 00 03 00 00 00 00 00 
75117.137000 1 18FF8379x Rx d 8 02 00 60 08 00 00 00 00 
75117.139000 1 18FF6B27x Rx d 8 00 00 00 00 00 00 00 00 
75117.140000 1 18FF6D27x Rx d 8 04 54 40 52 09 21 04 11 
75117.140000 1 18FF8227x Rx d 8 0D 00 01 02 00 02 01 00 
75117.140000 1 086 Rx d 8 0D 00 00 00 00 00 00 00 
75117.140000 1 CFF1227x Rx d 8 00 D0 07 00 00 00 00 00 
75117.141000 1 CF11227x Rx d 8 01 34 08 00 00 00 00 00 
75117.141000 1 268 Rx d 7 77 B6 23 00 00 00 00 
75117.141000 1 C00F327x Rx d 8 00 02 28 28 28 28 00 21 
75117.142000 1 18FF2027x Rx d 8 00 11 00 02 00 00 00 00 
75117.142000 1 18FFA527x Rx d 8 02 00 00 00 00 00 00 00 
75117.142000 1 18FEF71Ex Rx d 8 00 00 00 00 EB 01 00 00 
75117.143000 1 18FF6827x Rx d 8 00 00 00 00 00 00 01 01 
75117.144000 1 095 Tx d 8 00 00 00 00 00 00 00 00 
75117.146000 1 066 Rx d 8 00 00 00 00 00 00 00 00 
75117.146000 1 18FF1027x Rx d 5 00 00 00 00 00 
75117.147000 1 615 Rx d 8 00 00 00 00 00 00 00 00 
75117.147000 1 18FF1727x Rx d 8 00 00 00 00 41 10 00 00 
75117.147000 1 1D9 Rx d 8 34 00 03 00 00 00 00 00 
75117.148000 1 18FF8379x Rx d 8 03 00 20 00 00 00 00 00 
75117.148000 1 27F72B6x Rx d 8 14 00 00 00 00 00 00 00 
75117.148000 1 18FF2013x Rx d 8 04 E0 00 04 00 38 00 00 
75117.148000 1 18FFA413x Rx d 8 1C FF 10 01 03 00 00 00 
75117.149000 1 18FF6927x Rx d 8 FF 00 06 00 00 00 00 00 
75117.149000 1 18FEF71Ex Rx d 8 00 00 00 00 EB 01 00 00 
75117.149000 1 18FF8227x Rx d 8 0D 00 01 02 00 02 01 00 
75117.151000 1 268 Rx d 7 78 B6 23 00 00 00 00 
75117.153000 1 18FF6C27x Rx d 8 0D FF 00 00 00 00 00 00 
75117.155000 1 CF11365x Rx d 8 0E 00 00 00 00 00 00 00 
75117.156000 1 CF11465x Rx d 8 19 87 7F 7D 00 00 7F 7D 
75117.156000 1 18FF1027x Rx d 5 00 00 00 00 00 
75117.157000 1 615 Rx d 8 00 00 00 00 00 00 00 00 
75117.157000 1 18FF1727x Rx d 8 00 00 00 00 41 10 00 00 
75117.157000 1 1D9 Rx d 8 34 00 03 00 00 00 00 00 
75117.157000 1 18FF8379x Rx d 8 04 00 00 00 00 00 00 00 
75117.159000 1 18FF6A27x Rx d 8 00 00 00 00 00 00 00 06 
75117.159000 1 18FF8227x Rx d 8 0D 00 01 02 00 02 01 00 
75117.159000 1 18FEF71Ex Rx d 8 00 00 00 00 EB 01 00 00 
75117.160000 1 400 Rx d 8 00 00 00 00 00 00 00 00 
75117.161000 1 268 Rx d 7 79 B6 23 00 00 00 00 
75117.162000 1 CF11366x Rx d 8 0E 00 00 00 00 00 00 00 
75117.163000 1 095 Tx d 8 00 00 00 00 00 00 00 00 
75117.163000 1 18FF6E27x Rx d 8 00 00 00 00 00 00 00 00 
75117.167000 1 18FF8C13x Rx d 8 0D 00 00 00 00 00 00 00 
75117.168000 1 18FF1027x Rx d 5 00 00 00 00 00 
75117.169000 1 615 Rx d 8 00 00 00 00 00 00 00 00 
75117.169000 1 18FF1727x Rx d 8 00 00 00 00 41 10 00 00 
75117.169000 1 18FF2027x Rx d 8 00 11 00 02 01 00 00 00 
75117.170000 1 18FFA527x Rx d 8 02 00 00 00 00 00 00 00 
75117.170000 1 18FEF71Ex Rx d 8 00 00 00 00 EA 01 00 00 
75117.170000 1 18FF5838x Rx d 8 06 00 00 00 37 00 00 00 
75117.170000 1 7149Ax Rx d 8 00 00 00 00 00 00 00 00 
75117.171000 1 069 Rx d 8 00 00 00 00 00 00 00 00 
75117.171000 1 268 Rx d 7 7A B6 23 00 00 00 00 
75117.171000 1 C01FEFEx Rx d 8 00 00 00 00 00 00 00 00 
75117.171000 1 1D9 Rx d 8 34 00 03 00 00 00 00 00 
75117.172000 1 18FF6B27x Rx d 8 00 00 00 00 00 00 00 00 
75117.172000 1 18FF8227x Rx d 8 0D 00 01 02 00 02 01 00 
75117.172000 1 18FF8379x Rx d 8 05 00 00 0E 00 00 10 02 
75117.173000 1 18FF8479x Rx d 8 01 00 00 00 00 00 00 00 
75117.173000 1 27F72BAx Rx d 8 C9 06 00 00 00 00 00 00 
75117.173000 1 610 Rx d 8 00 00 00 00 00 00 00 00 
75117.173000 1 18FF6827x Rx d 8 00 00 00 00 00 00 01 01 
75117.176000 1 066 Rx d 8 01 00 00 00 00 00 00 00 
75117.177000 1 18FF1027x Rx d 5 00 00 00 00 00 
75117.177000 1 615 Rx d 8 00 00 00 00 00 00 00 00 
75117.177000 1 18FF1727x Rx d 8 00 00 00 00 41 10 00 00 
75117.177000 1 1D9 Rx d 8 34 00 03 00 00 00 00 00 
75117.178000 1 18FF8379x Rx d 8 06 00 00 00 00 00 00 00 
75117.178000 1 27F72B6x Rx d 8 05 00 00 00 00 00 00 00 
75117.178000 1 18FF2013x Rx d 8 04 E0 00 04 00 48 00 00 
75117.178000 1 18FFA413x Rx d 8 1C FF 10 01 04 00 00 00 
75117.179000 1 18FF6927x Rx d 8 FF 00 06 00 00 00 00 00 
75117.179000 1 18FEF71Ex Rx d 8 00 00 00 00 EB 01 00 00 
75117.179000 1 18FF8227x Rx d 8 0D 00 01 02 00 02 01 00 
75117.181000 1 268 Rx d 7 7B B6 23 00 00 00 00 
75117.181000 1 095 Tx d 8 00 00 00 00 00 00 00 00 
75117.183000 1 18FF6C27x Rx d 8 0D FF 00 00 00 00 00 00 
75117.186000 1 18FF1027x Rx d 5 00 00 00 00 00 
75117.186000 1 615 Rx d 8 00 00 00 00 00 00 00 00 
75117.187000 1 18FF1727x Rx d 8 00 00 00 00 41 10 00 00 
75117.187000 1 1D9 Rx d 8 34 00 03 00 00 00 00 00 
75117.187000 1 18FF8379x Rx d 8 07 10 00 00 10 00 00 00 
75117.189000 1 18FF6A27x Rx d 8 00 00 00 00 00 00 00 06 
75117.189000 1 18FF8327x Rx d 8 59 00 00 00 00 00 00 00 
75117.189000 1 18FEF71Ex Rx d 8 00 00 00 00 EB 01 00 00 
75117.191000 1 268 Rx d 7 7C B6 23 00 00 00 00 
75117.193000 1 18FF6E27x Rx d 8 00 00 00 00 00 00 00 00 
75117.196000 1 18FF1027x Rx d 5 00 00 00 00 00 
75117.197000 1 615 Rx d 8 00 00 00 00 00 00 00 00 
75117.197000 1 18FF1727x Rx d 8 00 00 00 00 41 10 00 00 
75117.197000 1 1D9 Rx d 8 34 00 03 00 00 00 00 00 
75117.197000 1 18FF8379x Rx d 8 18 10 00 00 10 00 00 00 
75117.199000 1 18FF6B27x Rx d 8 00 00 00 00 00 00 00 00 
75117.199000 1 18FF2027x Rx d 8 00 11 00 02 02 00 00 00 
75117.199000 1 18FFA527x Rx d 8 02 00 00 00 00 00 00 00 
75117.200000 1 18FEF71Ex Rx d 8 00 00 00 00 EB 01 00 00 
75117.200000 1 18FF8327x Rx d 8 59 00 00 00 00 00 00 00 
75117.201000 1 268 Rx d 7 7D B6 23 00 00 00 00 
75117.201000 1 095 Tx d 8 00 00 00 00 00 00 00 00 
75117.203000 1 18FF6827x Rx d 8 00 00 00 00 00 00 01 01 
75117.204000 1 C0027F3x Rx d 8 08 D0 07 7D 00 10 28 65 
75117.204000 1 101227F3x Rx d 8 11 0F 0F 16 0A 0F 04 05 
75117.204000 1 101627F3x Rx d 8 3D 0B 02 3B 0E 06 00 00 
75117.205000 1 182027F3x Rx d 8 FC 02 00 00 76 11 5A 19 
75117.205000 1 182127F3x Rx d 8 BC 1B B2 11 64 0A 63 00 
75117.205000 1 182227F3x Rx d 8 02 00 00 7D 00 7D 00 00 
75117.205000 1 182327F3x Rx d 8 44 01 42 18 DA 07 07 00 
75117.206000 1 182627F3x Rx d 8 3C 19 3C 00 00 7D 00 7D 
75117.206000 1 101027F3x Rx d 8 00 00 00 00 00 00 00 00 
75117.206000 1 10000111x Rx d 8 C0 C0 C0 C0 C0 C0 01 00 
75117.207000 1 066 Rx d 8 02 00 00 00 00 00 00 00 
75117.207000 1 18FF1027x Rx d 5 00 00 00 00 00 
75117.207000 1 615 Rx d 8 00 00 00 00 00 00 00 00 
75117.207000 1 18FF1727x Rx d 8 00 00 00 00 41 10 00 00 
75117.208000 1 1D9 Rx d 8 34 00 03 00 00 00 00 00 
75117.208000 1 18FF8379x Rx d 8 09 A1 01 08 00 00 00 00 
75117.208000 1 27F72B6x Rx d 8 06 00 00 00 00 00 00 00 
75117.208000 1 18FF2013x Rx d 8 04 E0 00 04 00 58 00 00 
75117.209000 1 18FF6927x Rx d 8 FF 00 06 00 00 00 00 00 
75117.209000 1 18FEF71Ex Rx d 8 00 00 00 00 EB 01 00 00 
75117.209000 1 18FF8327x Rx d 8 59 00 00 00 00 00 00 00 
75117.210000 1 18FFA413x Rx d 8 1C FF 10 01 05 00 00 00 
75117.211000 1 268 Rx d 7 7E B6 23 00 00 00 00 
75117.213000 1 18FF6C27x Rx d 8 0D FF 00 00 00 00 00 00 
75117.216000 1 18FF1027x Rx d 5 00 00 00 00 00 
75117.216000 1 615 Rx d 8 00 00 00 00 00 00 00 00 
75117.217000 1 18FF1727x Rx d 8 00 00 00 00 41 10 00 00 
75117.217000 1 C01FEFEx Rx d 8 00 00 00 00 00 00 00 00 
75117.217000 1 1D9 Rx d 8 34 00 03 00 00 00 00 00 
75117.218000 1 18FF8379x Rx d 8 0A 00 00 00 00 00 00 00 
75117.219000 1 18FF6A27x Rx d 8 00 00 00 00 00 00 00 06 
75117.219000 1 18FF8327x Rx d 8 59 00 00 00 00 00 00 00 
75117.219000 1 18FEF71Ex Rx d 8 00 00 00 00 EB 01 00 00 
75117.220000 1 095 Tx d 8 00 00 00 00 00 00 00 00 
75117.221000 1 268 Rx d 7 7F B6 23 00 00 00 00 
75117.223000 1 18FF6E27x Rx d 8 00 00 00 00 00 00 00 00 
75117.226000 1 18FF1027x Rx d 5 00 00 00 00 00 
75117.227000 1 615 Rx d 8 00 00 00 00 00 00 00 00 
75117.227000 1 18FF1727x Rx d 8 00 00 00 00 41 10 00 00 
75117.227000 1 1D9 Rx d 8 34 00 03 00 00 00 00 00 
75117.227000 1 18FF8379x Rx d 8 0B 00 00 00 40 08 00 00 
75117.229000 1 18FF6B27x Rx d 8 00 00 00 00 00 00 00 00 
75117.229000 1 18FF2027x Rx d 8 00 11 00 02 03 00 00 00 
75117.229000 1 18FFA527x Rx d 8 02 00 00 00 00 00 00 00 
75117.229000 1 18FEF71Ex Rx d 8 00 00 00 00 EB 01 00 00 
75117.230000 1 18FF8327x Rx d 8 59 00 00 00 00 00 00 00 
75117.231000 1 268 Rx d 7 80 B6 23 00 00 00 00 
75117.233000 1 18FF6827x Rx d 8 00 00 00 00 00 00 01 01 
75117.236000 1 066 Rx d 8 03 00 00 00 00 00 00 00 
75117.237000 1 18FF1027x Rx d 5 00 00 00 00 00 
75117.237000 1 615 Rx d 8 00 00 00 00 00 00 00 00 
75117.237000 1 18FF1727x Rx d 8 00 00 00 00 41 10 00 00 
75117.237000 1 1D9 Rx d 8 34 00 03 00 00 00 00 00 
75117.238000 1 18FF8379x Rx d 8 AC 73 15 06 40 10 40 10 
75117.238000 1 27F72B6x Rx d 8 87 00 00 00 00 00 00 00 
75117.238000 1 18FF2013x Rx d 8 04 E0 00 04 00 68 00 00 
75117.238000 1 18FFA413x Rx d 8 1C FF 10 01 06 00 00 00 
75117.239000 1 A100101x Rx d 1 E1 
75117.239000 1 095 Tx d 8 00 00 00 00 00 00 00 00 
75117.239000 1 A100100x Rx d 8 E1 24 07 DF 03 08 D6 06 
75117.240000 1 18FF7027x Rx d 8 99 5C 2E 5C 00 00 00 00 
75117.240000 1 086 Rx d 8 0D 00 00 00 00 00 00 00 
75117.240000 1 CFF1227x Rx d 8 00 D0 07 00 00 00 00 00 
75117.241000 1 CF11227x Rx d 8 01 34 08 00 00 00 00 00 
75117.241000 1 268 Rx d 7 81 B6 23 00 00 00 00 
75117.241000 1 C00F327x Rx d 8 00 02 28 28 28 28 40 21 
75117.241000 1 18FF4527x Rx d 8 3D 3B 3C 00 00 28 3C 81 
75117.242000 1 18FEF71Ex Rx d 8 00 00 00 00 EB 01 00 00 
75117.242000 1 18FF6927x Rx d 8 FF 00 06 00 00 00 00 00 
75117.242000 1 18FF6D27x Rx d 8 04 54 44 52 09 21 04 11 
75117.242000 1 18FF8427x Rx d 8 1C 00 09 1C 00 E5 07 00 
75117.243000 1 18FF6C27x Rx d 8 0D FF 00 00 00 00 00 00 
75117.246000 1 18FF1027x Rx d 5 00 00 00 00 00 
75117.246000 1 615 Rx d 8 00 00 00 00 00 00 00 00 
75117.247000 1 18FF1727x Rx d 8 00 00 00 00 41 10 00 00 
75117.247000 1 1D9 Rx d 8 34 00 03 00 00 00 00 00 
75117.247000 1 18FF8379x Rx d 8 2D 06 66 18 60 04 01 00 
75117.249000 1 18FF6A27x Rx d 8 00 00 00 00 00 00 00 06 
75117.249000 1 18FF8427x Rx d 8 1C 00 09 1C 00 E5 07 00 
75117.249000 1 18FEF71Ex Rx d 8 00 00 00 00 EB 01 00 00 
75117.251000 1 268 Rx d 7 82 B6 23 00 00 00 00 
75117.253000 1 18FF6E27x Rx d 8 00 00 00 00 00 00 00 00 
75117.255000 1 CF11365x Rx d 8 0E 00 00 00 00 00 00 00 
75117.256000 1 CF11465x Rx d 8 18 87 7F 7D 00 00 7F 7D 
75117.256000 1 18FF1027x Rx d 5 00 00 00 00 00 
75117.257000 1 615 Rx d 8 00 00 00 00 00 00 00 00 
75117.257000 1 18FF1727x Rx d 8 00 00 00 00 41 10 00 00 
75117.257000 1 1D9 Rx d 8 34 00 03 00 00 00 00 00 
75117.257000 1 18FF8379x Rx d 8 0E 00 40 D3 EB FF FF 00 
75117.259000 1 18FF6B27x Rx d 8 00 00 00 00 00 00 00 00 
75117.259000 1 18FF2027x Rx d 8 00 11 00 02 04 00 00 00 
75117.259000 1 095 Tx d 8 00 00 00 00 00 00 00 00 
75117.260000 1 18FFA527x Rx d 8 02 00 00 00 00 00 00 00 
75117.260000 1 18FEF71Ex Rx d 8 00 00 00 00 EB 01 00 00 
75117.260000 1 18FF8427x Rx d 8 1C 00 09 1C 00 E5 07 00 
75117.260000 1 400 Rx d 8 00 00 00 00 00 00 00 00 
75117.261000 1 268 Rx d 7 83 B6 23 00 00 00 00 
75117.262000 1 CF11366x Rx d 8 0E 00 00 00 00 00 00 00 
75117.263000 1 CF11466x Rx d 8 1D 87 7F 7D 00 00 7F 7D 
75117.263000 1 18FF6827x Rx d 8 00 00 00 00 00 00 01 01 
75117.267000 1 18FF8C13x Rx d 8 0D 00 00 00 00 00 00 00 
75117.268000 1 066 Rx d 8 04 00 00 00 00 00 00 00 
75117.268000 1 18FF1027x Rx d 5 00 00 00 00 00 
75117.269000 1 615 Rx d 8 00 00 00 00 00 00 00 00 
75117.269000 1 18FEF71Ex Rx d 8 00 00 00 00 EB 01 00 00 
75117.269000 1 18FF1727x Rx d 8 00 00 00 00 41 10 00 00 
75117.270000 1 18FF6927x Rx d 8 FF 00 06 00 00 00 00 00 
75117.270000 1 18FF5838x Rx d 8 06 00 00 00 37 00 00 00 
75117.270000 1 7149Ax Rx d 8 00 00 00 00 00 00 00 00 
75117.270000 1 069 Rx d 8 00 00 00 00 00 00 00 00 
75117.271000 1 C01FEFEx Rx d 8 00 00 00 00 00 00 00 00 
75117.271000 1 1D9 Rx d 8 34 00 03 00 00 00 00 00 
75117.271000 1 268 Rx d 7 84 B6 23 00 00 00 00 
75117.271000 1 18FF8379x Rx d 8 10 00 00 00 40 00 40 00 
75117.272000 1 18FF8427x Rx d 8 1C 00 09 1C 00 E5 07 00 
75117.272000 1 18FF8479x Rx d 8 01 00 00 00 00 00 00 00 
75117.272000 1 27F72BAx Rx d 8 CA FF 6F FF FF BF F3 07 
75117.273000 1 610 Rx d 8 00 00 00 00 00 00 00 00 
75117.273000 1 27F72B6x Rx d 8 08 00 00 00 00 00 00 00 
75117.273000 1 18FF2013x Rx d 8 04 E0 00 04 00 78 00 00 
75117.273000 1 18FF6C27x Rx d 8 0D FF 00 00 00 00 00 00 
75117.274000 1 18FFA413x Rx d 8 1C FF 10 01 07 00 00 00 
75117.276000 1 18FF1027x Rx d 5 00 00 00 00 00 
75117.277000 1 615 Rx d 8 00 00 00 00 00 00 00 00 
75117.277000 1 18FF1727x Rx d 8 00 00 00 00 41 10 00 00 
75117.277000 1 1D9 Rx d 8 34 00 03 00 00 00 00 00 
75117.277000 1 18FF8379x Rx d 8 01 00 00 00 00 00 00 00 
75117.278000 1 095 Tx d 8 00 00 00 00 00 00 00 00 
75117.279000 1 18FF6A27x Rx d 8 00 00 00 00 00 00 00 06 
75117.279000 1 18FF8427x Rx d 8 1C 00 09 1C 00 E5 07 00 
75117.279000 1 18FEF71Ex Rx d 8 00 00 00 00 EB 01 00 00 
75117.281000 1 268 Rx d 7 85 B6 23 00 00 00 00 
75117.283000 1 18FF6E27x Rx d 8 00 00 00 00 00 00 00 00 
75117.286000 1 18FF1027x Rx d 5 00 00 00 00 00 
75117.287000 1 615 Rx d 8 00 00 00 00 00 00 00 00 
75117.287000 1 18FF1727x Rx d 8 00 00 00 00 41 10 00 00 
75117.287000 1 1D9 Rx d 8 34 00 03 00 00 00 00 00 
75117.287000 1 18FF8379x Rx d 8 02 00 60 08 00 00 00 00 
75117.289000 1 18FF6B27x Rx d 8 00 00 00 00 00 00 00 00 
75117.289000 1 18FF2027x Rx d 8 00 11 00 02 05 00 00 00 
75117.289000 1 18FFA527x Rx d 8 02 00 00 00 00 00 00 00 
75117.290000 1 18FEF71Ex Rx d 8 00 00 00 00 EB 01 00 00 
75117.290000 1 18FF8427x Rx d 8 1C 00 09 1C 00 E5 07 00 
75117.291000 1 268 Rx d 7 86 B6 23 00 00 00 00 
75117.293000 1 18FF6827x Rx d 8 00 00 00 00 00 00 01 01 
75117.296000 1 095 Tx d 8 00 00 00 00 00 00 00 00 
75117.296000 1 066 Rx d 8 05 00 00 00 00 00 00 00 
75117.297000 1 18FF1027x Rx d 5 00 00 00 00 00 
75117.297000 1 615 Rx d 8 00 00 00 00 00 00 00 00 
75117.297000 1 18FF1727x Rx d 8 00 00 00 00 41 10 00 00 
75117.297000 1 1D9 Rx d 8 34 00 03 00 00 00 00 00 
75117.298000 1 18FF8379x Rx d 8 03 00 20 00 00 00 00 00 
75117.298000 1 27F72B6x Rx d 8 00 00 00 00 00 00 00 00 
75117.298000 1 18FF2013x Rx d 8 04 E0 00 04 00 08 00 00 
75117.299000 1 18FFA413x Rx d 8 1C FF 10 01 00 00 00 00 
75117.299000 1 18FF6927x Rx d 8 FF 00 06 00 00 00 00 00 
75117.299000 1 18FEF71Ex Rx d 8 00 00 00 00 EB 01 00 00 
75117.299000 1 18FF8427x Rx d 8 1C 00 09 1C 00 E5 07 00 
75117.301000 1 268 Rx d 7 87 B6 23 00 00 00 00 
75117.303000 1 18FF6C27x Rx d 8 0D FF 00 00 00 00 00 00 
75117.304000 1 C0027F3x Rx d 8 08 D0 07 7D 00 10 28 66 
75117.304000 1 101227F3x Rx d 8 11 0F 0F 16 0A 0F 04 05 
75117.304000 1 101627F3x Rx d 8 3D 0B 02 3B 0E 06 00 00 
75117.305000 1 182027F3x Rx d 8 FC 02 00 00 76 11 5A 19 
75117.305000 1 182127F3x Rx d 8 BC 1B B2 11 64 0A 63 00 
75117.305000 1 182227F3x Rx d 8 02 00 00 7D 00 7D 00 00 
75117.305000 1 182327F3x Rx d 8 44 01 42 18 DA 07 07 00 
75117.306000 1 182627F3x Rx d 8 3C 19 3C 00 00 7D 00 7D 
75117.306000 1 101027F3x Rx d 8 00 00 00 00 00 00 00 00 
75117.306000 1 10000111x Rx d 8 C0 C0 C0 C0 C0 C0 01 00 
75117.306000 1 18FF1027x Rx d 5 00 00 00 00 00 
75117.307000 1 615 Rx d 8 00 00 00 00 00 00 00 00 
75117.307000 1 18FF1727x Rx d 8 00 00 00 00 41 10 00 00 
75117.307000 1 1D9 Rx d 8 34 00 03 00 00 00 00 00 
75117.308000 1 18FF8379x Rx d 8 04 00 00 00 00 00 00 00 
75117.309000 1 18FF6A27x Rx d 8 00 00 00 00 00 00 00 06 
75117.309000 1 18FF8427x Rx d 8 1C 00 09 1C 00 E5 07 00 
75117.309000 1 18FEF71Ex Rx d 8 00 00 00 00 EB 01 00 00 
75117.311000 1 268 Rx d 7 88 B6 23 00 00 00 00 
75117.313000 1 18FF6E27x Rx d 8 00 00 00 00 00 00 00 00 
75117.315000 1 095 Tx d 8 00 00 00 00 00 00 00 00 
75117.316000 1 18FF1027x Rx d 5 00 00 00 00 00 
75117.317000 1 615 Rx d 8 00 00 00 00 00 00 00 00 
75117.317000 1 18FF1727x Rx d 8 00 00 00 00 41 10 00 00 
75117.317000 1 C01FEFEx Rx d 8 00 00 00 00 00 00 00 00 
75117.317000 1 1D9 Rx d 8 34 00 03 00 00 00 00 00 
75117.318000 1 18FF8379x Rx d 8 05 00 00 0E 00 00 10 02 
75117.319000 1 18FF6B27x Rx d 8 00 00 00 00 00 00 00 00 
75117.319000 1 18FF2027x Rx d 8 00 11 00 02 06 00 00 00 
75117.319000 1 18FFA527x Rx d 8 02 00 00 00 00 00 00 00 
75117.320000 1 18FEF71Ex Rx d 8 00 00 00 00 EB 01 00 00 
75117.320000 1 18FF8427x Rx d 8 1C 00 09 1C 00 E5 07 00 
75117.321000 1 268 Rx d 7 89 B6 23 00 00 00 00 
75117.323000 1 18FF6827x Rx d 8 00 00 00 00 00 00 01 01 
75117.326000 1 066 Rx d 8 06 00 00 00 00 00 00 00 
75117.327000 1 18FF1027x Rx d 5 00 00 00 00 00 
75117.327000 1 615 Rx d 8 00 00 00 00 00 00 00 00 
75117.327000 1 18FF1727x Rx d 8 00 00 00 00 41 10 00 00 
75117.327000 1 1D9 Rx d 8 34 00 03 00 00 00 00 00 
75117.328000 1 18FF8379x Rx d 8 06 00 00 00 00 00 00 00 
75117.328000 1 27F72B6x Rx d 8 41 00 00 00 00 00 00 00 
75117.328000 1 18FF2013x Rx d 8 04 E0 00 04 00 18 00 00 
75117.328000 1 18FFA413x Rx d 8 1C FF 10 01 01 00 00 00 
75117.329000 1 18FF6927x Rx d 8 FF 00 06 00 00 00 00 00 
75117.329000 1 18FEF71Ex Rx d 8 00 00 00 00 EB 01 00 00 
75117.329000 1 18FF8427x Rx d 8 1C 00 09 1C 00 E5 07 00 
75117.331000 1 268 Rx d 7 8A B6 23 00 00 00 00 
75117.333000 1 18FF6C27x Rx d 8 0D FF 00 00 00 00 00 00 
75117.335000 1 095 Tx d 8 00 00 00 00 00 00 00 00 
75117.336000 1 18FF1027x Rx d 5 00 00 00 00 00 
75117.337000 1 615 Rx d 8 00 00 00 00 00 00 00 00 
75117.337000 1 18FF1727x Rx d 8 00 00 00 00 41 10 00 00 
75117.337000 1 1D9 Rx d 8 34 00 03 00 00 00 00 00 
75117.337000 1 18FF8379x Rx d 8 07 10 00 00 10 00 00 00 
75117.339000 1 18FF6A27x Rx d 8 00 00 00 00 00 00 00 06 
75117.340000 1 18FF6D27x Rx d 8 04 54 48 52 09 21 04 11 
75117.340000 1 18FF8427x Rx d 8 1C 00 09 1C 00 E5 07 00 
75117.340000 1 086 Rx d 8 0D 00 00 00 00 00 00 00 
75117.340000 1 CFF1227x Rx d 8 00 D0 07 00 00 00 00 00 
75117.341000 1 CF11227x Rx d 8 01 34 08 00 00 00 00 00 
75117.341000 1 268 Rx d 7 8B B6 23 00 00 00 00 
75117.341000 1 C00F327x Rx d 8 00 02 28 28 28 28 80 21 
75117.341000 1 18FEF71Ex Rx d 8 00 00 00 00 EB 01 00 00 
75117.343000 1 18FF6E27x Rx d 8 00 00 00 00 00 00 00 00 
75117.346000 1 18FF1027x Rx d 5 00 00 00 00 00 
75117.347000 1 615 Rx d 8 00 00 00 00 00 00 00 00 
75117.347000 1 18FF1727x Rx d 8 00 00 00 00 41 10 00 00 
75117.347000 1 1D9 Rx d 8 34 00 03 00 00 00 00 00 
75117.347000 1 18FF8379x Rx d 8 18 10 00 00 10 00 00 00 
75117.348000 1 A100101x Rx d 1 E4 
75117.349000 1 18FF6B27x Rx d 8 00 00 00 00 00 00 00 00 
75117.349000 1 A100100x Rx d 8 E4 24 00 02 05 02 E9 05 
75117.349000 1 18FF2027x Rx d 8 00 11 00 02 07 00 00 00 
75117.350000 1 18FFA527x Rx d 8 02 00 00 00 00 00 00 00 
75117.350000 1 18FEF71Ex Rx d 8 00 00 00 00 EB 01 00 00 
75117.350000 1 18FF8427x Rx d 8 1C 00 09 1C 00 E5 07 00 
75117.351000 1 268 Rx d 7 8C B6 23 00 00 00 00 
75117.352000 1 095 Tx d 8 00 00 00 00 00 00 00 00 
75117.353000 1 18FF6827x Rx d 8 00 00 00 00 00 00 01 01 
75117.356000 1 CF11365x Rx d 8 0E 00 00 00 00 00 00 00 
75117.356000 1 CF11465x Rx d 8 16 87 7F 7D 03 00 7F 7D 
75117.356000 1 066 Rx d 8 07 00 00 00 00 00 00 00 
75117.357000 1 18FF1027x Rx d 5 00 00 00 00 00 
75117.357000 1 615 Rx d 8 00 00 00 00 00 00 00 00 
75117.357000 1 18FF1727x Rx d 8 00 00 00 00 41 10 00 00 
75117.357000 1 1D9 Rx d 8 34 00 03 00 00 00 00 00 
75117.358000 1 18FF8379x Rx d 8 09 A1 01 08 00 00 00 00 
75117.358000 1 27F72B6x Rx d 8 02 00 00 00 00 00 00 00 
75117.358000 1 18FF2013x Rx d 8 04 E0 00 04 00 28 00 00 
75117.359000 1 18FFA413x Rx d 8 1C FF 10 01 02 00 00 00 
75117.359000 1 18FF6927x Rx d 8 FF 00 06 00 00 00 00 00 
75117.359000 1 18FEF71Ex Rx d 8 00 00 00 00 EB 01 00 00 
75117.359000 1 18FF8427x Rx d 8 1C 00 09 1C 00 E5 07 00 
75117.360000 1 400 Rx d 8 00 00 00 00 00 00 00 00 
75117.361000 1 268 Rx d 7 8D B6 23 00 00 00 00 
75117.362000 1 CF11366x Rx d 8 0E 00 00 00 00 00 00 00 
75117.362000 1 CF11466x Rx d 8 19 87 7F 7D 00 00 7F 7D 
75117.363000 1 18FF6C27x Rx d 8 0D FF 00 00 00 00 00 00 
75117.367000 1 18FF8C13x Rx d 8 0D 00 00 00 00 00 00 00 
75117.368000 1 18FF1027x Rx d 5 00 00 00 00 00 
75117.369000 1 615 Rx d 8 00 00 00 00 00 00 00 00 
75117.369000 1 18FEF71Ex Rx d 8 00 00 00 00 EB 01 00 00 
75117.369000 1 18FF1727x Rx d 8 00 00 00 00 41 10 00 00 
75117.370000 1 18FF6A27x Rx d 8 00 00 00 00 00 00 00 06 
75117.370000 1 18FF5838x Rx d 8 06 00 00 00 37 00 00 00 
75117.370000 1 7149Ax Rx d 8 00 00 00 00 00 00 00 00 
75117.370000 1 069 Rx d 8 00 00 00 00 00 00 00 00 
75117.371000 1 C01FEFEx Rx d 8 00 00 00 00 00 00 00 00 
75117.371000 1 1D9 Rx d 8 34 00 03 00 00 00 00 00 
75117.371000 1 095 Tx d 8 00 00 00 00 00 00 00 00 
75117.371000 1 268 Rx d 7 8E B6 23 00 00 00 00 
75117.372000 1 18FF8379x Rx d 8 0A 00 00 00 00 00 00 00 
75117.372000 1 18FF8427x Rx d 8 1C 00 09 1C 00 E5 07 00 
75117.372000 1 18FF8479x Rx d 8 01 00 00 00 00 00 00 00 
75117.373000 1 27F72BAx Rx d 8 0B 20 FF F6 E6 E9 1E 00 
75117.373000 1 610 Rx d 8 00 00 00 00 00 00 00 00 
75117.373000 1 18FF6E27x Rx d 8 00 00 00 00 00 00 00 00 
75117.376000 1 18FF1027x Rx d 5 00 00 00 00 00 
75117.377000 1 615 Rx d 8 00 00 00 00 00 00 00 00 
75117.377000 1 18FF1727x Rx d 8 00 00 00 00 41 10 00 00 
75117.377000 1 1D9 Rx d 8 34 00 03 00 00 00 00 00 
75117.377000 1 18FF8379x Rx d 8 0B 00 00 00 40 08 00 00 
75117.379000 1 18FF6B27x Rx d 8 00 00 00 00 00 00 00 00 
75117.379000 1 18FF2027x Rx d 8 00 11 00 02 00 00 00 00 
75117.379000 1 18FFA527x Rx d 8 02 00 00 00 00 00 00 00 
75117.380000 1 18FEF71Ex Rx d 8 00 00 00 00 EB 01 00 00 
75117.380000 1 18FF8427x Rx d 8 1C 00 09 1C 00 E5 07 00 
75117.381000 1 268 Rx d 7 8F B6 23 00 00 00 00 
75117.383000 1 18FF6827x Rx d 8 00 00 00 00 00 00 01 01 
75117.386000 1 066 Rx d 8 00 00 00 00 00 00 00 00 
75117.387000 1 18FF1027x Rx d 5 00 00 00 00 00 
75117.387000 1 615 Rx d 8 00 00 00 00 00 00 00 00 
75117.387000 1 18FF1727x Rx d 8 00 00 00 00 41 10 00 00 
75117.387000 1 1D9 Rx d 8 34 00 03 00 00 00 00 00 
75117.388000 1 18FF8379x Rx d 8 AC 73 15 06 40 10 40 10 
75117.388000 1 27F72B6x Rx d 8 03 00 00 00 00 00 00 00 
75117.388000 1 18FF2013x Rx d 8 04 E0 00 04 00 38 00 00 
75117.388000 1 18FFA413x Rx d 8 1C FF 10 01 03 00 00 00 
75117.389000 1 18FF6927x Rx d 8 FF 00 06 00 00 00 00 00 
75117.389000 1 095 Tx d 8 00 00 00 00 00 00 00 00 
75117.389000 1 18FEF71Ex Rx d 8 00 00 00 00 EB 01 00 00 
75117.390000 1 18FF8427x Rx d 8 1C 00 09 1C 00 E5 07 00 
75117.391000 1 268 Rx d 7 90 B6 23 00 00 00 00 
75117.393000 1 18FF6C27x Rx d 8 0D FF 00 00 00 00 00 00 
75117.396000 1 18FF1027x Rx d 5 00 00 00 00 00 
75117.397000 1 615 Rx d 8 00 00 00 00 00 00 00 00 
75117.397000 1 18FF1727x Rx d 8 00 00 00 00 41 10 00 00 
75117.397000 1 1D9 Rx d 8 34 00 03 00 00 00 00 00 
75117.397000 1 18FF8379x Rx d 8 2D 06 66 18 60 04 01 00 
75117.399000 1 18FF6A27x Rx d 8 00 00 00 00 00 00 00 06 
75117.399000 1 18FF8427x Rx d 8 1C 00 09 1C 00 E5 07 00 
75117.399000 1 18FEF71Ex Rx d 8 00 00 00 00 EA 01 00 00 
75117.401000 1 268 Rx d 7 91 B6 23 00 00 00 00 
75117.403000 1 18FF6E27x Rx d 8 00 00 00 00 00 00 00 00 
75117.404000 1 C0027F3x Rx d 8 08 D0 07 7D 00 10 28 67 
75117.404000 1 101227F3x Rx d 8 11 0F 0F 16 0A 0F 04 05 
75117.404000 1 101627F3x Rx d 8 3D 0B 02 3B 0E 06 00 00 
75117.405000 1 182027F3x Rx d 8 FC 02 00 00 76 11 5A 19 
75117.405000 1 182127F3x Rx d 8 BC 1B B2 11 64 0A 63 00 
75117.405000 1 182227F3x Rx d 8 02 00 00 7D 00 7D 00 00 
75117.405000 1 182327F3x Rx d 8 44 01 42 18 DA 07 07 00 
75117.406000 1 182627F3x Rx d 8 3C 19 3C 00 00 7D 00 7D 
75117.406000 1 101027F3x Rx d 8 00 00 00 00 00 00 00 00 
75117.406000 1 10000111x Rx d 8 C0 C0 C0 C0 C0 C0 01 00 
75117.406000 1 18FF1027x Rx d 5 00 00 00 00 00 
75117.407000 1 615 Rx d 8 00 00 00 00 00 00 00 00 
75117.407000 1 18FF1727x Rx d 8 00 00 00 00 41 10 00 00 
75117.407000 1 1D9 Rx d 8 34 00 03 00 00 00 00 00 
75117.408000 1 18FF8379x Rx d 8 0E 00 40 D3 EB FF FF 00 
75117.408000 1 095 Tx d 8 00 00 00 00 00 00 00 00 
75117.409000 1 18FF6B27x Rx d 8 00 00 00 00 00 00 00 00 
75117.409000 1 18FF2027x Rx d 8 00 11 00 02 01 00 00 00 
75117.409000 1 18FFA527x Rx d 8 02 00 00 00 00 00 00 00 
75117.410000 1 18FEF71Ex Rx d 8 00 00 00 00 EA 01 00 00 
75117.410000 1 18FF8427x Rx d 8 1C 00 09 1C 00 E5 07 00 
75117.411000 1 268 Rx d 7 92 B6 23 00 00 00 00 
75117.413000 1 18FF6827x Rx d 8 00 00 00 00 00 00 01 01 
75117.416000 1 066 Rx d 8 01 00 00 00 00 00 00 00 
75117.417000 1 18FF1027x Rx d 5 00 00 00 00 00 
75117.417000 1 615 Rx d 8 00 00 00 00 00 00 00 00 
75117.417000 1 18FF1727x Rx d 8 00 00 00 00 41 10 00 00 
75117.417000 1 C01FEFEx Rx d 8 00 00 00 00 00 00 00 00 
75117.418000 1 1D9 Rx d 8 34 00 03 00 00 00 00 00 
75117.418000 1 18FF8379x Rx d 8 10 00 00 00 40 00 40 00 
75117.418000 1 27F72B6x Rx d 8 14 00 00 00 00 00 00 00 
75117.418000 1 18FF2013x Rx d 8 04 E0 00 04 00 48 00 00 
75117.419000 1 18FF6927x Rx d 8 FF 00 06 00 00 00 00 00 
75117.419000 1 18FEF71Ex Rx d 8 00 00 00 00 EA 01 00 00 
75117.419000 1 18FF8427x Rx d 8 1C 00 09 1C 00 E5 07 00 
75117.420000 1 18FFA413x Rx d 8 1C FF 10 01 04 00 00 00 
75117.421000 1 268 Rx d 7 93 B6 23 00 00 00 00 
75117.423000 1 18FF6C27x Rx d 8 0D FF 00 00 00 00 00 00 
75117.426000 1 18FF1027x Rx d 5 00 00 00 00 00 
75117.427000 1 615 Rx d 8 00 00 00 00 00 00 00 00 
75117.427000 1 18FF1727x Rx d 8 00 00 00 00 41 10 00 00 
75117.427000 1 095 Tx d 8 00 00 00 00 00 00 00 00 
75117.427000 1 1D9 Rx d 8 34 00 03 00 00 00 00 00 
75117.428000 1 18FF8379x Rx d 8 01 00 00 00 00 00 00 00 
75117.429000 1 18FF6A27x Rx d 8 00 00 00 00 00 00 00 06 
75117.429000 1 18FF8427x Rx d 8 1C 00 09 1C 00 E5 07 00 
75117.429000 1 18FEF71Ex Rx d 8 00 00 00 00 EA 01 00 00 
75117.431000 1 268 Rx d 7 94 B6 23 00 00 00 00 
75117.433000 1 18FF6E27x Rx d 8 00 00 00 00 00 00 00 00 
75117.436000 1 18FF1027x Rx d 5 00 00 00 00 00 
75117.437000 1 615 Rx d 8 00 00 00 00 00 00 00 00 
75117.437000 1 18FF1727x Rx d 8 00 00 00 00 41 10 00 00 
75117.437000 1 1D9 Rx d 8 34 00 03 00 00 00 00 00 
75117.437000 1 18FF8379x Rx d 8 02 00 60 08 00 00 00 00 
75117.439000 1 18FF6B27x Rx d 8 00 00 00 00 00 00 00 00 
75117.440000 1 18FF6D27x Rx d 8 04 54 50 52 09 21 04 11 
75117.440000 1 18FF8427x Rx d 8 1C 00 09 1C 00 E5 07 00 
75117.440000 1 086 Rx d 8 0D 00 00 00 00 00 00 00 
75117.440000 1 CFF1227x Rx d 8 00 D0 07 00 00 00 00 00 
75117.441000 1 CF11227x Rx d 8 01 34 08 00 00 00 00 00 
75117.441000 1 268 Rx d 7 95 B6 23 00 00 00 00 
75117.441000 1 C00F327x Rx d 8 00 02 28 28 28 28 C0 21 
75117.442000 1 18FF2027x Rx d 8 00 11 00 02 02 00 00 00 
75117.442000 1 18FFA527x Rx d 8 02 00 00 00 00 00 00 00 
75117.442000 1 18FEF71Ex Rx d 8 00 00 00 00 EB 01 00 00 
75117.443000 1 18FF6827x Rx d 8 00 00 00 00 00 00 01 01 
75117.446000 1 095 Tx d 8 00 00 00 00 00 00 00 00 
75117.446000 1 066 Rx d 8 02 00 00 00 00 00 00 00 
75117.447000 1 18FF1027x Rx d 5 00 00 00 00 00 
75117.447000 1 615 Rx d 8 00 00 00 00 00 00 00 00 
75117.447000 1 18FF1727x Rx d 8 00 00 00 00 41 10 00 00 
75117.447000 1 1D9 Rx d 8 34 00 03 00 00 00 00 00 
75117.448000 1 18FF8379x Rx d 8 03 00 20 00 00 00 00 00 
75117.448000 1 27F72B6x Rx d 8 05 00 00 00 00 00 00 00 
75117.448000 1 18FF2013x Rx d 8 04 E0 00 04 00 58 00 00 
75117.448000 1 18FFA413x Rx d 8 1C FF 10 01 05 00 00 00 
75117.449000 1 18FF6927x Rx d 8 FF 00 06 00 00 00 00 00 
75117.449000 1 18FEF71Ex Rx d 8 00 00 00 00 EB 01 00 00 
75117.449000 1 18FF8427x Rx d 8 1C 00 09 1C 00 E5 07 00 
75117.451000 1 268 Rx d 7 96 B6 23 00 00 00 00 
75117.453000 1 18FF6C27x Rx d 8 0D FF 00 00 00 00 00 00 
75117.455000 1 CF11365x Rx d 8 0E 00 00 00 00 00 00 00 
75117.456000 1 CF11465x Rx d 8 16 87 7F 7D 00 00 7F 7D 
75117.456000 1 18FECA65x Rx d 8 10 00 E9 FD 04 7F FF FF 
75117.456000 1 18FF1027x Rx d 5 00 00 00 00 00 
75117.456000 1 615 Rx d 8 00 00 00 00 00 00 00 00 
75117.457000 1 18FF1727x Rx d 8 00 00 00 00 41 10 00 00 
75117.457000 1 1D9 Rx d 8 34 00 03 00 00 00 00 00 
75117.457000 1 18FF8379x Rx d 8 04 00 00 00 00 00 00 00 
75117.458000 1 A100101x Rx d 1 E2 
75117.459000 1 18FF6A27x Rx d 8 00 00 00 00 00 00 00 06 
75117.459000 1 A100100x Rx d 8 E2 24 02 50 1A 01 E6 1A 
75117.459000 1 18FEF71Ex Rx d 8 00 00 00 00 EA 01 00 00 
75117.459000 1 18FF8427x Rx d 8 1C 00 09 1C 00 E5 07 00 
75117.460000 1 400 Rx d 8 00 00 00 00 00 00 00 00 
75117.461000 1 268 Rx d 7 97 B6 23 00 00 00 00 
75117.462000 1 CF11366x Rx d 8 0E 00 00 00 00 00 00 00 
75117.463000 1 CF11466x Rx d 8 1B 87 7F 7D 00 00 7F 7D 
75117.463000 1 18FECA66x Rx d 8 10 00 E9 FD 04 7F FF FF 
75117.463000 1 18FF6E27x Rx d 8 00 00 00 00 00 00 00 00 
75117.465000 1 095 Tx d 8 00 00 00 00 00 00 00 00 
75117.467000 1 18FF8C13x Rx d 8 0D 00 00 00 00 00 00 00 
75117.468000 1 18FF1027x Rx d 5 00 00 00 00 00 
75117.469000 1 615 Rx d 8 00 00 00 00 00 00 00 00 
75117.469000 1 18FF1727x Rx d 8 00 00 00 00 41 10 00 00 
75117.469000 1 18FF2027x Rx d 8 00 11 00 02 03 00 00 00 
75117.470000 1 18FFA527x Rx d 8 02 00 00 00 00 00 00 00 
75117.470000 1 18FECA79x Rx d 8 04 04 00 00 00 00 00 00 
75117.470000 1 18FEF71Ex Rx d 8 00 00 00 00 EA 01 00 00 
75117.470000 1 18FF5838x Rx d 8 06 00 00 00 37 00 00 00 
75117.471000 1 7149Ax Rx d 8 00 00 00 00 00 00 00 00 
75117.471000 1 069 Rx d 8 00 00 00 00 00 00 00 00 
75117.471000 1 268 Rx d 7 98 B6 23 00 00 00 00 
75117.471000 1 C01FEFEx Rx d 8 00 00 00 00 00 00 00 00 
75117.472000 1 1D9 Rx d 8 34 00 03 00 00 00 00 00 
75117.472000 1 18FF6B27x Rx d 8 00 00 00 00 00 00 00 00 
75117.472000 1 18FF8379x Rx d 8 05 00 00 0E 00 00 10 02 
75117.473000 1 18FF8427x Rx d 8 1C 00 09 1C 00 E5 07 00 
75117.473000 1 18FF8479x Rx d 8 01 00 00 00 00 00 00 00 
75117.473000 1 27F72BAx Rx d 8 4C E8 04 00 00 00 00 00 
75117.473000 1 610 Rx d 8 00 00 00 00 00 00 00 00 
75117.474000 1 18FF6827x Rx d 8 00 00 00 00 00 00 01 01 
75117.476000 1 066 Rx d 8 03 00 00 00 00 00 00 00 
75117.477000 1 18FF1027x Rx d 5 00 00 00 00 00 
75117.477000 1 615 Rx d 8 00 00 00 00 00 00 00 00 
75117.477000 1 18FF1727x Rx d 8 00 00 00 00 41 10 00 00 
75117.477000 1 1D9 Rx d 8 34 00 03 00 00 00 00 00 
75117.478000 1 18FF8379x Rx d 8 06 00 00 00 00 00 00 00 
75117.478000 1 27F72B6x Rx d 8 06 00 00 00 00 00 00 00 
75117.478000 1 18FF2013x Rx d 8 04 E0 00 04 00 68 00 00 
75117.479000 1 18FFA413x Rx d 8 1C FF 10 01 06 00 00 00 
75117.479000 1 18FF6927x Rx d 8 FF 00 06 00 00 00 00 00 
75117.479000 1 18FEF71Ex Rx d 8 00 00 00 00 EA 01 00 00 
75117.479000 1 18FF8427x Rx d 8 1C 00 09 1C 00 E5 07 00 
75117.481000 1 268 Rx d 7 99 B6 23 00 00 00 00 
75117.483000 1 18FF6C27x Rx d 8 0D FF 00 00 00 00 00 00 
75117.484000 1 095 Tx d 8 00 00 00 00 00 00 00 00 
75117.486000 1 18FF1027x Rx d 5 00 00 00 00 00 
75117.487000 1 615 Rx d 8 00 00 00 00 00 00 00 00 
75117.487000 1 18FF1727x Rx d 8 00 00 00 00 41 10 00 00 
75117.487000 1 1D9 Rx d 8 34 00 03 00 00 00 00 00 
75117.487000 1 18FF8379x Rx d 8 07 10 00 00 10 00 00 00 
75117.489000 1 18FF6A27x Rx d 8 00 00 00 00 00 00 00 06 
75117.489000 1 18FF8427x Rx d 8 1C 00 09 1C 00 E5 07 00 
75117.489000 1 18FEF71Ex Rx d 8 00 00 00 00 EB 01 00 00 
75117.491000 1 268 Rx d 7 9A B6 23 00 00 00 00 
75117.493000 1 18FF6E27x Rx d 8 00 00 00 00 00 00 00 00 
75117.496000 1 18FF1027x Rx d 5 00 00 00 00 00 
75117.497000 1 615 Rx d 8 00 00 00 00 00 00 00 00 
75117.497000 1 18FF1727x Rx d 8 00 00 00 00 41 10 00 00 
75117.497000 1 1D9 Rx d 8 34 00 03 00 00 00 00 00 
75117.497000 1 18FF8379x Rx d 8 18 10 00 00 10 00 00 00 
75117.499000 1 18FF6B27x Rx d 8 00 00 00 00 00 00 00 00 
75117.499000 1 18FF2027x Rx d 8 00 11 00 02 04 00 00 00 
75117.499000 1 18FFA527x Rx d 8 02 00 00 00 00 00 00 00 
75117.500000 1 18FEF71Ex Rx d 8 00 00 00 00 EA 01 00 00 
75117.500000 1 18FF8427x Rx d 8 1C 00 09 1C 00 E5 07 00 
75117.501000 1 268 Rx d 7 9B B6 23 00 00 00 00 
75117.503000 1 095 Tx d 8 00 00 00 00 00 00 00 00 
75117.503000 1 18FF6827x Rx d 8 00 00 00 00 00 00 01 01 
75117.504000 1 C0027F3x Rx d 8 08 D0 07 7D 00 10 28 68 
75117.504000 1 101227F3x Rx d 8 11 0F 0F 16 0A 0F 04 05 
75117.504000 1 101627F3x Rx d 8 3D 0B 02 3B 0E 06 00 00 
75117.505000 1 182027F3x Rx d 8 FC 02 00 00 76 11 5A 19 
75117.505000 1 182127F3x Rx d 8 BC 1B B2 11 64 0A 63 00 
75117.505000 1 182227F3x Rx d 8 02 00 00 7D 00 7D 00 00 
75117.505000 1 182327F3x Rx d 8 44 01 42 18 DA 07 07 00 
75117.506000 1 182627F3x Rx d 8 3C 19 3C 00 00 7D 00 7D 
75117.506000 1 101027F3x Rx d 8 00 00 00 00 00 00 00 00 
75117.506000 1 10000111x Rx d 8 C0 C0 C0 C0 C0 C0 01 00 
75117.506000 1 066 Rx d 8 04 00 00 00 00 00 00 00 
75117.507000 1 18FF1027x Rx d 5 00 00 00 00 00 
75117.507000 1 615 Rx d 8 00 00 00 00 00 00 00 00 
75117.507000 1 18FF1727x Rx d 8 00 00 00 00 41 10 00 00 
75117.508000 1 1D9 Rx d 8 34 00 03 00 00 00 00 00 
75117.508000 1 18FF8379x Rx d 8 09 A1 01 08 00 00 00 00 
75117.508000 1 27F72B6x Rx d 8 87 00 00 00 00 00 00 00 
75117.508000 1 18FF2013x Rx d 8 04 E0 00 04 00 78 00 00 
75117.509000 1 18FF6927x Rx d 8 FF 00 06 00 00 00 00 00 
75117.509000 1 18FEF71Ex Rx d 8 00 00 00 00 EA 01 00 00 
75117.509000 1 18FF8427x Rx d 8 1C 00 09 1C 00 E5 07 00 
75117.510000 1 18FFA413x Rx d 8 1C FF 10 01 07 00 00 00 
75117.511000 1 268 Rx d 7 9C B6 23 00 00 00 00 
75117.513000 1 18FF6C27x Rx d 8 0D FF 00 00 00 00 00 00 
75117.516000 1 18FF1027x Rx d 5 00 00 00 00 00 
75117.517000 1 615 Rx d 8 00 00 00 00 00 00 00 00 
75117.517000 1 18FF1727x Rx d 8 00 00 00 00 41 10 00 00 
75117.517000 1 C01FEFEx Rx d 8 00 00 00 00 00 00 00 00 
75117.517000 1 1D9 Rx d 8 34 00 03 00 00 00 00 00 
75117.518000 1 18FF8379x Rx d 8 0A 00 00 00 00 00 00 00 
75117.519000 1 18FF6A27x Rx d 8 00 00 00 00 00 00 00 06 
75117.519000 1 18FF8427x Rx d 8 1C 00 09 1C 00 E5 07 00 
75117.519000 1 18FEF71Ex Rx d 8 00 00 00 00 EA 01 00 00 
75117.521000 1 268 Rx d 7 9D B6 23 00 00 00 00 
75117.522000 1 095 Tx d 8 00 00 00 00 00 00 00 00 
75117.523000 1 18FF6E27x Rx d 8 00 00 00 00 00 00 00 00 
75117.526000 1 18FF1027x Rx d 5 00 00 00 00 00 
75117.527000 1 615 Rx d 8 00 00 00 00 00 00 00 00 
75117.527000 1 18FF1727x Rx d 8 00 00 00 00 41 10 00 00 
75117.527000 1 1D9 Rx d 8 34 00 03 00 00 00 00 00 
75117.527000 1 18FF8379x Rx d 8 0B 00 00 00 40 08 00 00 
75117.529000 1 18FF6B27x Rx d 8 00 00 00 00 00 00 00 00 
75117.529000 1 18FF2027x Rx d 8 00 11 00 02 05 00 00 00 
75117.529000 1 18FFA527x Rx d 8 02 00 00 00 00 00 00 00 
75117.530000 1 18FEF71Ex Rx d 8 00 00 00 00 EB 01 00 00 
75117.530000 1 18FF8427x Rx d 8 1C 00 09 1C 00 E5 07 00 
75117.531000 1 268 Rx d 7 9E B6 23 00 00 00 00 
75117.533000 1 18FF6827x Rx d 8 00 00 00 00 00 00 01 01 
75117.536000 1 066 Rx d 8 05 00 00 00 00 00 00 00 
75117.537000 1 18FF1027x Rx d 5 00 00 00 00 00 
75117.537000 1 615 Rx d 8 00 00 00 00 00 00 00 00 
75117.537000 1 18FF1727x Rx d 8 00 00 00 00 41 10 00 00 
75117.537000 1 1D9 Rx d 8 34 00 03 00 00 00 00 00 
75117.538000 1 18FF8379x Rx d 8 AC 73 15 06 40 10 40 10 
75117.538000 1 27F72B6x Rx d 8 08 00 00 00 00 00 00 00 
75117.538000 1 18FF2013x Rx d 8 04 E0 00 04 00 08 00 00 
75117.538000 1 18FFA413x Rx d 8 1C FF 10 01 00 00 00 00 
75117.539000 1 18FF6927x Rx d 8 FF 00 06 00 00 00 00 00 
75117.540000 1 18FF6D27x Rx d 8 04 54 58 52 09 21 04 11 
75117.540000 1 18FF8227x Rx d 8 0D 00 01 02 00 02 01 00 
75117.540000 1 086 Rx d 8 0D 00 00 00 00 00 00 00 
75117.540000 1 CFF1227x Rx d 8 00 D0 07 00 00 00 00 00 
75117.541000 1 CF11227x Rx d 8 01 34 08 00 00 00 00 00 
75117.541000 1 268 Rx d 7 9F B6 23 00 00 00 00 
75117.541000 1 C00F327x Rx d 8 00 02 28 28 28 28 00 22 
75117.541000 1 095 Tx d 8 00 00 00 00 00 00 00 00 
75117.542000 1 18FEF71Ex Rx d 8 00 00 00 00 EA 01 00 00 
75117.543000 1 18FF6C27x Rx d 8 0D FF 00 00 00 00 00 00 
75117.546000 1 18FF1027x Rx d 5 00 00 00 00 00 
75117.547000 1 615 Rx d 8 00 00 00 00 00 00 00 00 
75117.547000 1 18FF1727x Rx d 8 00 00 00 00 41 10 00 00 
75117.547000 1 1D9 Rx d 8 34 00 03 00 00 00 00 00 
75117.547000 1 18FF8379x Rx d 8 2D 06 66 18 60 04 01 00 
75117.549000 1 18FF6A27x Rx d 8 00 00 00 00 00 00 00 06 
75117.549000 1 18FF8227x Rx d 8 0D 00 01 02 00 02 01 00 
75117.549000 1 18FEF71Ex Rx d 8 00 00 00 00 EA 01 00 00 
75117.551000 1 268 Rx d 7 A0 B6 23 00 00 00 00 
75117.553000 1 18FF6E27x Rx d 8 00 00 00 00 00 00 00 00 
75117.556000 1 CF11365x Rx d 8 0E 00 00 00 00 00 00 00 
75117.556000 1 CF11465x Rx d 8 16 87 7F 7D 00 00 7F 7D 
75117.556000 1 CFBD865x Rx d 8 54 5B 00 00 00 00 00 00 
75117.557000 1 CFBD965x Rx d 8 00 61 80 00 DC 63 00 00 
75117.557000 1 18FF1027x Rx d 5 00 00 00 00 00 
75117.557000 1 615 Rx d 8 00 00 00 00 00 00 00 00 
75117.557000 1 18FF1727x Rx d 8 00 00 00 00 41 10 00 00 
75117.558000 1 1D9 Rx d 8 34 00 03 00 00 00 00 00 
75117.558000 1 18FF8379x Rx d 8 0E 00 40 D3 EB FF FF 00 
75117.559000 1 18FF6B27x Rx d 8 00 00 00 00 00 00 00 00 
75117.559000 1 18FF2027x Rx d 8 00 11 00 02 06 00 00 00 
75117.559000 1 18FFA527x Rx d 8 02 00 00 00 00 00 00 00 
75117.560000 1 18FEF71Ex Rx d 8 00 00 00 00 EB 01 00 00 
75117.560000 1 18FF8227x Rx d 8 0D 00 01 02 00 02 01 00 
75117.560000 1 400 Rx d 8 00 00 00 00 00 00 00 00 
75117.561000 1 268 Rx d 7 A1 B6 23 00 00 00 00 
75117.561000 1 095 Tx d 8 00 00 00 00 00 00 00 00 
75117.562000 1 CF11366x Rx d 8 0E 00 00 00 00 00 00 00 
75117.563000 1 CF11466x Rx d 8 16 87 7F 7D 00 00 7F 7D 
75117.563000 1 CFBD866x Rx d 8 4F 56 00 00 00 00 00 00 
75117.563000 1 CFBD966x Rx d 8 00 61 80 00 DC 61 00 00 
75117.564000 1 18FF6827x Rx d 8 00 00 00 00 00 00 01 01 
75117.567000 1 18FF8C13x Rx d 8 0D 00 00 00 00 00 00 00 
75117.568000 1 066 Rx d 8 06 00 00 00 00 00 00 00 
75117.569000 1 A100101x Rx d 1 E3 
75117.569000 1 18FF1027x Rx d 5 00 00 00 00 00 
75117.569000 1 A100100x Rx d 8 E3 24 00 01 05 00 00 05 
75117.569000 1 615 Rx d 8 00 00 00 00 00 00 00 00 
75117.570000 1 18FEF71Ex Rx d 8 00 00 00 00 EB 01 00 00 
75117.570000 1 18FF1727x Rx d 8 00 00 00 00 41 10 00 00 
75117.570000 1 18FF5838x Rx d 8 06 00 00 00 37 00 00 00 
75117.570000 1 7149Ax Rx d 8 00 00 00 00 00 00 00 00 
75117.571000 1 069 Rx d 8 00 00 00 00 00 00 00 00 
75117.571000 1 268 Rx d 7 A2 B6 23 00 00 00 00 
75117.571000 1 C01FEFEx Rx d 8 00 00 00 00 00 00 00 00 
75117.571000 1 1D9 Rx d 8 34 00 03 00 00 00 00 00 
75117.572000 1 18FF6927x Rx d 8 FF 00 06 00 00 00 00 00 
75117.572000 1 18FF8227x Rx d 8 0D 00 01 02 00 02 01 00 
75117.572000 1 18FF8379x Rx d 8 10 00 00 00 40 00 40 00 
75117.573000 1 18FF8479x Rx d 8 01 00 00 00 00 00 00 00 
75117.573000 1 27F72BAx Rx d 8 0F 1C 0E 2F 0E FF 0F 00 
75117.573000 1 610 Rx d 8 00 00 00 00 00 00 00 00 
75117.573000 1 27F72B6x Rx d 8 00 00 00 00 00 00 00 00 
75117.574000 1 18FF2013x Rx d 8 04 E0 00 04 00 18 00 00 
75117.574000 1 18FF6C27x Rx d 8 0D FF 00 00 00 00 00 00 
75117.574000 1 18FFA413x Rx d 8 1C FF 10 01 01 00 00 00 
75117.576000 1 18FF1027x Rx d 5 00 00 00 00 00 
75117.577000 1 615 Rx d 8 00 00 00 00 00 00 00 00 
75117.577000 1 18FF1727x Rx d 8 00 00 00 00 41 10 00 00 
75117.577000 1 1D9 Rx d 8 34 00 03 00 00 00 00 00 
75117.577000 1 18FF8379x Rx d 8 01 00 00 00 00 00 00 00 
75117.579000 1 18FF6A27x Rx d 8 00 00 00 00 00 00 00 06 
75117.579000 1 18FF8227x Rx d 8 0D 00 01 02 00 02 01 00 
75117.579000 1 18FEF71Ex Rx d 8 00 00 00 00 EA 01 00 00 
75117.580000 1 095 Tx d 8 00 00 00 00 00 00 00 00 
75117.581000 1 268 Rx d 7 A3 B6 23 00 00 00 00 
75117.583000 1 18FF6E27x Rx d 8 00 00 00 00 00 00 00 00 
75117.586000 1 18FF1027x Rx d 5 00 00 00 00 00 
75117.587000 1 615 Rx d 8 00 00 00 00 00 00 00 00 
75117.587000 1 18FF1727x Rx d 8 00 00 00 00 41 10 00 00 
75117.587000 1 1D9 Rx d 8 34 00 03 00 00 00 00 00 
75117.587000 1 18FF8379x Rx d 8 02 00 60 08 00 00 00 00 
75117.589000 1 18FF6B27x Rx d 8 00 00 00 00 00 00 00 00 
75117.589000 1 18FF2027x Rx d 8 00 11 00 02 07 00 00 00 
75117.589000 1 18FFA527x Rx d 8 02 00 00 00 00 00 00 00 
75117.590000 1 18FEF71Ex Rx d 8 00 00 00 00 EA 01 00 00 
75117.590000 1 18FF8327x Rx d 8 59 00 00 00 00 00 00 00 
75117.591000 1 268 Rx d 7 A4 B6 23 00 00 00 00 
75117.593000 1 18FF6827x Rx d 8 00 00 00 00 00 00 01 01 
75117.596000 1 066 Rx d 8 07 00 00 00 00 00 00 00 
75117.597000 1 18FF1027x Rx d 5 00 00 00 00 00 
75117.597000 1 615 Rx d 8 00 00 00 00 00 00 00 00 
75117.597000 1 18FF1727x Rx d 8 00 00 00 00 41 10 00 00 
75117.597000 1 1D9 Rx d 8 34 00 03 00 00 00 00 00 
75117.598000 1 18FF8379x Rx d 8 03 00 20 00 00 00 00 00 
75117.598000 1 27F72B6x Rx d 8 41 00 00 00 00 00 00 00 
75117.598000 1 18FF2013x Rx d 8 04 E0 00 04 00 28 00 00 
75117.599000 1 18FFA413x Rx d 8 1C FF 10 01 02 00 00 00 
75117.599000 1 18FF6927x Rx d 8 FF 00 06 00 00 00 00 00 
75117.599000 1 18FEF71Ex Rx d 8 00 00 00 00 EA 01 00 00 
75117.599000 1 095 Tx d 8 00 00 00 00 00 00 00 00 
75117.600000 1 18FF8327x Rx d 8 59 00 00 00 00 00 00 00 
75117.601000 1 268 Rx d 7 A5 B6 23 00 00 00 00 
75117.603000 1 18FF6C27x Rx d 8 0D FF 00 00 00 00 00 00 
75117.604000 1 C0027F3x Rx d 8 08 D0 07 7D 00 10 28 69 
75117.604000 1 101227F3x Rx d 8 11 0F 0F 16 0A 0F 04 05 
75117.604000 1 101627F3x Rx d 8 3D 0B 02 3B 0E 06 00 00 
75117.605000 1 182027F3x Rx d 8 FC 02 00 00 76 11 5A 19 
75117.605000 1 182127F3x Rx d 8 BC 1B B2 11 64 0A 63 00 
75117.605000 1 182227F3x Rx d 8 02 00 00 7D 00 7D 00 00 
75117.605000 1 182327F3x Rx d 8 44 01 42 18 DA 07 07 00 
75117.606000 1 182627F3x Rx d 8 3C 19 3C 00 00 7D 00 7D 
75117.606000 1 101027F3x Rx d 8 00 00 00 00 00 00 00 00 
75117.606000 1 10000111x Rx d 8 C0 C0 C0 C0 C0 C0 01 00 
75117.606000 1 18FF1027x Rx d 5 00 00 00 00 00 
75117.607000 1 615 Rx d 8 00 00 00 00 00 00 00 00 
75117.607000 1 18FF1727x Rx d 8 00 00 00 00 41 10 00 00 
75117.607000 1 1D9 Rx d 8 34 00 03 00 00 00 00 00 
75117.608000 1 18FF8379x Rx d 8 04 00 00 00 00 00 00 00 
75117.609000 1 18FF6A27x Rx d 8 00 00 00 00 00 00 00 06 
75117.609000 1 18FF8327x Rx d 8 59 00 00 00 00 00 00 00 
75117.609000 1 18FEF71Ex Rx d 8 00 00 00 00 EA 01 00 00 
75117.611000 1 268 Rx d 7 A6 B6 23 00 00 00 00 
75117.613000 1 18FF6E27x Rx d 8 00 00 00 00 00 00 00 00 
75117.616000 1 095 Tx d 8 00 00 00 00 00 00 00 00 
75117.616000 1 18FF1027x Rx d 5 00 00 00 00 00 
75117.617000 1 615 Rx d 8 00 00 00 00 00 00 00 00 
75117.617000 1 18FF1727x Rx d 8 00 00 00 00 41 10 00 00 
75117.617000 1 C01FEFEx Rx d 8 00 00 00 00 00 00 00 00 
75117.618000 1 1D9 Rx d 8 34 00 03 00 00 00 00 00 
75117.618000 1 18FF8379x Rx d 8 05 00 00 0E 00 00 10 02 
75117.619000 1 18FF6B27x Rx d 8 00 00 00 00 00 00 00 00 
75117.619000 1 18FF2027x Rx d 8 00 11 00 02 00 00 00 00 
75117.619000 1 18FFA527x Rx d 8 02 00 00 00 00 00 00 00 
75117.620000 1 18FEF71Ex Rx d 8 00 00 00 00 EA 01 00 00 
75117.620000 1 18FF8327x Rx d 8 59 00 00 00 00 00 00 00 
75117.621000 1 268 Rx d 7 A7 B6 23 00 00 00 00 
75117.623000 1 18FF6827x Rx d 8 00 00 00 00 00 00 01 01 
75117.626000 1 066 Rx d 8 00 00 00 00 00 00 00 00 
75117.627000 1 18FF1027x Rx d 5 00 00 00 00 00 
75117.627000 1 615 Rx d 8 00 00 00 00 00 00 00 00 
75117.627000 1 18FF1727x Rx d 8 00 00 00 00 41 10 00 00 
75117.627000 1 1D9 Rx d 8 34 00 03 00 00 00 00 00 
75117.628000 1 18FF8379x Rx d 8 06 00 00 00 00 00 00 00 
75117.628000 1 27F72B6x Rx d 8 02 00 00 00 00 00 00 00 
75117.628000 1 18FF2013x Rx d 8 04 E0 00 04 00 38 00 00 
75117.629000 1 18FFA413x Rx d 8 1C FF 10 01 03 00 00 00 
75117.629000 1 18FF6927x Rx d 8 FF 00 06 00 00 00 00 00 
75117.629000 1 18FEF71Ex Rx d 8 00 00 00 00 EB 01 00 00 
75117.629000 1 18FF8327x Rx d 8 59 00 00 00 00 00 00 00 
75117.631000 1 268 Rx d 7 A8 B6 23 00 00 00 00 
75117.633000 1 18FF6C27x Rx d 8 0D FF 00 00 00 00 00 00 
75117.635000 1 095 Tx d 8 00 00 00 00 00 00 00 00 
75117.636000 1 18FF1027x Rx d 5 00 00 00 00 00 
75117.637000 1 615 Rx d 8 00 00 00 00 00 00 00 00 
75117.637000 1 18FF1727x Rx d 8 00 00 00 00 41 10 00 00 
75117.637000 1 1D9 Rx d 8 34 00 03 00 00 00 00 00 
75117.637000 1 18FF8379x Rx d 8 07 10 00 00 10 00 00 00 
75117.639000 1 18FF6A27x Rx d 8 00 00 00 00 00 00 00 06 
75117.640000 1 18FF6D27x Rx d 8 04 54 60 52 09 21 04 11 
75117.640000 1 18FF8427x Rx d 8 1C 00 09 1C 00 E5 07 00 
75117.640000 1 086 Rx d 8 0D 00 00 00 00 00 00 00 
75117.640000 1 CFF1227x Rx d 8 00 D0 07 00 00 00 00 00 
75117.641000 1 CF11227x Rx d 8 01 34 08 00 00 00 00 00 
75117.641000 1 268 Rx d 7 A9 B6 23 00 00 00 00 
75117.641000 1 C00F327x Rx d 8 00 02 28 28 28 28 40 22 
75117.641000 1 18FEF71Ex Rx d 8 00 00 00 00 EB 01 00 00 
75117.643000 1 18FF6E27x Rx d 8 00 00 00 00 00 00 00 00 
75117.646000 1 18FF1027x Rx d 5 00 00 00 00 00 
75117.647000 1 615 Rx d 8 00 00 00 00 00 00 00 00 
75117.647000 1 18FF1727x Rx d 8 00 00 00 00 41 10 00 00 
75117.647000 1 1D9 Rx d 8 34 00 03 00 00 00 00 00 
75117.647000 1 18FF8379x Rx d 8 18 10 00 00 10 00 00 00 
75117.649000 1 18FF6B27x Rx d 8 00 00 00 00 00 00 00 00 
75117.649000 1 18FF2027x Rx d 8 00 11 00 02 01 00 00 00 
75117.649000 1 18FFA527x Rx d 8 02 00 00 00 00 00 00 00 
75117.650000 1 18FEF71Ex Rx d 8 00 00 00 00 EA 01 00 00 
75117.650000 1 18FF8427x Rx d 8 1C 00 09 1C 00 E5 07 00 
75117.651000 1 268 Rx d 7 AA B6 23 00 00 00 00 
75117.653000 1 18FF6827x Rx d 8 00 00 00 00 00 00 01 01 
75117.654000 1 095 Tx d 8 00 00 00 00 00 00 00 00 
75117.655000 1 CF11365x Rx d 8 0E 00 00 00 00 00 00 00 
75117.656000 1 CF11465x Rx d 8 16 87 7F 7D 00 00 7F 7D 
75117.656000 1 066 Rx d 8 01 00 00 00 00 00 00 00 
75117.657000 1 18FF1027x Rx d 5 00 00 00 00 00 
75117.657000 1 615 Rx d 8 00 00 00 00 00 00 00 00 
75117.657000 1 18FF1727x Rx d 8 00 00 00 00 41 10 00 00 
75117.657000 1 1D9 Rx d 8 34 00 03 00 00 00 00 00 
75117.658000 1 18FF8379x Rx d 8 09 A1 01 08 00 00 00 00 
75117.658000 1 27F72B6x Rx d 8 03 00 00 00 00 00 00 00 
75117.658000 1 18FF2013x Rx d 8 04 E0 00 04 00 48 00 00 
75117.659000 1 18FFA413x Rx d 8 1C FF 10 01 04 00 00 00 
75117.659000 1 18FF6927x Rx d 8 FF 00 06 00 00 00 00 00 
75117.659000 1 18FEF71Ex Rx d 8 00 00 00 00 EA 01 00 00 
75117.659000 1 18FF8427x Rx d 8 1C 00 09 1C 00 E5 07 00 
75117.660000 1 400 Rx d 8 00 00 00 00 00 00 00 00 
75117.661000 1 268 Rx d 7 AB B6 23 00 00 00 00 
75117.662000 1 CF11366x Rx d 8 0E 00 00 00 00 00 00 00 
75117.663000 1 CF11466x Rx d 8 12 87 7F 7D 00 00 7F 7D 
75117.663000 1 18FF6C27x Rx d 8 0D FF 00 00 00 00 00 00 
75117.667000 1 18FF8C13x Rx d 8 0D 00 00 00 00 00 00 00 
75117.668000 1 18FF1027x Rx d 5 00 00 00 00 00 
75117.669000 1 615 Rx d 8 00 00 00 00 00 00 00 00 
75117.669000 1 18FEF71Ex Rx d 8 00 00 00 00 EA 01 00 00 
75117.669000 1 18FF1727x Rx d 8 00 00 00 00 41 10 00 00 
75117.670000 1 18FF6A27x Rx d 8 00 00 00 00 00 00 00 06 
75117.670000 1 18FF5838x Rx d 8 06 00 00 00 37 00 00 00 
75117.670000 1 7149Ax Rx d 8 00 00 00 00 00 00 00 00 
75117.670000 1 069 Rx d 8 00 00 00 00 00 00 00 00 
75117.671000 1 268 Rx d 7 AC B6 23 00 00 00 00 
75117.671000 1 C01FEFEx Rx d 8 00 00 00 00 00 00 00 00 
75117.671000 1 1D9 Rx d 8 34 00 03 00 00 00 00 00 
75117.672000 1 18FF8379x Rx d 8 0A 00 00 00 00 00 00 00 
75117.672000 1 18FF8427x Rx d 8 1C 00 09 1C 00 E5 07 00 
75117.672000 1 18FF8479x Rx d 8 01 00 00 00 00 00 00 00 
75117.672000 1 27F72BAx Rx d 8 1A C0 04 D8 FF 07 00 00 
75117.673000 1 610 Rx d 8 00 00 00 00 00 00 00 00 
75117.673000 1 095 Tx d 8 00 00 00 00 00 00 00 00 
75117.673000 1 18FF6E27x Rx d 8 00 00 00 00 00 00 00 00 
75117.676000 1 18FF1027x Rx d 5 00 00 00 00 00 
75117.677000 1 615 Rx d 8 00 00 00 00 00 00 00 00 
75117.677000 1 18FF1727x Rx d 8 00 00 00 00 41 10 00 00 
75117.677000 1 1D9 Rx d 8 34 00 03 00 00 00 00 00 
75117.677000 1 18FF8379x Rx d 8 0B 00 00 00 40 08 00 00 
75117.678000 1 A100101x Rx d 1 E5 
75117.679000 1 18FF6B27x Rx d 8 00 00 00 00 00 00 00 00 
75117.679000 1 A100100x Rx d 8 E5 04 00 00 00 00 00 00 
75117.679000 1 18FF2027x Rx d 8 00 11 00 02 02 00 00 00 
75117.680000 1 18FFA527x Rx d 8 02 00 00 00 00 00 00 00 
75117.680000 1 18FEF71Ex Rx d 8 00 00 00 00 EB 01 00 00 
75117.680000 1 18FF8427x Rx d 8 1C 00 09 1C 00 E5 07 00 
75117.681000 1 268 Rx d 7 AD B6 23 00 00 00 00 
75117.683000 1 18FF6827x Rx d 8 00 00 00 00 00 00 01 01 
75117.686000 1 066 Rx d 8 02 00 00 00 00 00 00 00 
75117.687000 1 18FF1027x Rx d 5 00 00 00 00 00 
75117.687000 1 615 Rx d 8 00 00 00 00 00 00 00 00 
75117.687000 1 18FF1727x Rx d 8 00 00 00 00 41 10 00 00 
75117.687000 1 1D9 Rx d 8 34 00 03 00 00 00 00 00 
75117.688000 1 18FF8379x Rx d 8 AC 73 15 06 40 10 40 10 
75117.688000 1 27F72B6x Rx d 8 14 00 00 00 00 00 00 00 
75117.688000 1 18FF2013x Rx d 8 04 E0 00 04 00 58 00 00 
75117.689000 1 18FFA413x Rx d 8 1C FF 10 01 05 00 00 00 
75117.689000 1 18FF6927x Rx d 8 FF 00 06 00 00 00 00 00 
75117.689000 1 18FEF71Ex Rx d 8 00 00 00 00 EB 01 00 00 
75117.689000 1 18FF8427x Rx d 8 1C 00 09 1C 00 E5 07 00 
75117.691000 1 268 Rx d 7 AE B6 23 00 00 00 00 
75117.691000 1 095 Tx d 8 00 00 00 00 00 00 00 00 
75117.693000 1 18FF6C27x Rx d 8 0D FF 00 00 00 00 00 00 
75117.696000 1 18FF1027x Rx d 5 00 00 00 00 00 
75117.697000 1 615 Rx d 8 00 00 00 00 00 00 00 00 
75117.697000 1 18FF1727x Rx d 8 00 00 00 00 41 10 00 00 
75117.697000 1 1D9 Rx d 8 34 00 03 00 00 00 00 00 
75117.697000 1 18FF8379x Rx d 8 2D 06 66 18 60 04 01 00 
75117.698000 1 A100101x Rx d 1 E5 
75117.699000 1 18FF6A27x Rx d 8 00 00 00 00 00 00 00 06 
75117.699000 1 A100100x Rx d 8 E5 04 00 00 00 00 00 00 
75117.699000 1 18FEF71Ex Rx d 8 00 00 00 00 EA 01 00 00 
75117.700000 1 18FF8427x Rx d 8 1C 00 09 1C 00 E5 07 00 
75117.701000 1 268 Rx d 7 AF B6 23 00 00 00 00 
75117.703000 1 18FF6E27x Rx d 8 00 00 00 00 00 00 00 00 
75117.704000 1 C0027F3x Rx d 8 08 D0 07 7D 00 10 28 6A 
75117.704000 1 101227F3x Rx d 8 11 0F 0F 16 0A 0F 04 05 
75117.704000 1 101627F3x Rx d 8 3D 0B 02 3B 0E 06 00 00 
75117.705000 1 182027F3x Rx d 8 FC 02 00 00 76 11 5A 19 
75117.705000 1 182127F3x Rx d 8 BC 1B B2 11 64 0A 63 00 
75117.705000 1 182227F3x Rx d 8 02 00 00 7D 00 7D 00 00 
75117.705000 1 182327F3x Rx d 8 44 01 42 18 DA 07 07 00 
75117.706000 1 182627F3x Rx d 8 3C 19 3C 00 00 7D 00 7D 
75117.706000 1 101027F3x Rx d 8 00 00 00 00 00 00 00 00 
75117.706000 1 10000111x Rx d 8 C0 C0 C0 C0 C0 C0 01 00 
75117.707000 1 18FF1027x Rx d 5 00 00 00 00 00 
75117.707000 1 615 Rx d 8 00 00 00 00 00 00 00 00 
75117.707000 1 18FF1727x Rx d 8 00 00 00 00 41 10 00 00 
75117.707000 1 095 Tx d 8 00 00 00 00 00 00 00 00 
75117.708000 1 1D9 Rx d 8 34 00 03 00 00 00 00 00 
75117.708000 1 18FF8379x Rx d 8 0E 00 40 D3 EB FF FF 00 
75117.709000 1 18FF6B27x Rx d 8 00 00 00 00 00 00 00 00 
75117.709000 1 18FF2027x Rx d 8 00 11 00 02 03 00 00 00 
75117.709000 1 18FFA527x Rx d 8 02 00 00 00 00 00 00 00 
75117.709000 1 18FEF71Ex Rx d 8 00 00 00 00 EA 01 00 00 
75117.710000 1 18FF8427x Rx d 8 1C 00 09 1C 00 E5 07 00 
75117.711000 1 268 Rx d 7 B0 B6 23 00 00 00 00 
75117.713000 1 18FF6827x Rx d 8 00 00 00 00 00 00 01 01 
75117.716000 1 066 Rx d 8 03 00 00 00 00 00 00 00 
75117.717000 1 18FF1027x Rx d 5 00 00 00 00 00 
75117.717000 1 615 Rx d 8 00 00 00 00 00 00 00 00 
75117.717000 1 18FF1727x Rx d 8 00 00 00 00 41 10 00 00 
75117.718000 1 C01FEFEx Rx d 8 00 00 00 00 00 00 00 00 
75117.718000 1 1D9 Rx d 8 34 00 03 00 00 00 00 00 
75117.718000 1 18FF8379x Rx d 8 10 00 00 00 40 00 40 00 
75117.718000 1 27F72B6x Rx d 8 05 00 00 00 00 00 00 00 
75117.718000 1 A100101x Rx d 1 E5 
75117.719000 1 18FF2013x Rx d 8 04 E0 00 04 00 68 00 00 
75117.719000 1 A100100x Rx d 8 E5 04 00 00 00 00 00 00 
75117.719000 1 18FEF71Ex Rx d 8 00 00 00 00 EA 01 00 00 
75117.720000 1 18FF6927x Rx d 8 FF 00 06 00 00 00 00 00 
75117.720000 1 18FF8427x Rx d 8 1C 00 09 1C 00 E5 07 00 
75117.720000 1 18FFA413x Rx d 8 1C FF 10 01 06 00 00 00 
75117.721000 1 268 Rx d 7 B1 B6 23 00 00 00 00 
75117.723000 1 18FF6C27x Rx d 8 0D FF 00 00 00 00 00 00 
75117.724000 1 095 Tx d 8 00 00 00 00 00 00 00 00 
75117.726000 1 18FF1027x Rx d 5 00 00 00 00 00 
75117.727000 1 615 Rx d 8 00 00 00 00 00 00 00 00 
75117.727000 1 18FF1727x Rx d 8 00 00 00 00 41 10 00 00 
75117.727000 1 1D9 Rx d 8 34 00 03 00 00 00 00 00 
75117.727000 1 18FF8379x Rx d 8 01 00 00 00 00 00 00 00 
75117.729000 1 18FF6A27x Rx d 8 00 00 00 00 00 00 00 06 
75117.729000 1 18FF8427x Rx d 8 1C 00 09 1C 00 E5 07 00 
75117.729000 1 18FEF71Ex Rx d 8 00 00 00 00 EA 01 00 00 
75117.731000 1 268 Rx d 7 B2 B6 23 00 00 00 00 
75117.733000 1 18FF6E27x Rx d 8 00 00 00 00 00 00 00 00 
75117.736000 1 18FF1027x Rx d 5 00 00 00 00 00 
75117.737000 1 615 Rx d 8 00 00 00 00 00 00 00 00 
75117.737000 1 18FF1727x Rx d 8 00 00 00 00 41 10 00 00 
75117.737000 1 1D9 Rx d 8 34 00 03 00 00 00 00 00 
75117.737000 1 18FF8379x Rx d 8 02 00 60 08 00 00 00 00 
75117.739000 1 A100101x Rx d 1 E5 
75117.739000 1 A100100x Rx d 8 E5 04 00 00 00 00 00 00 
75117.740000 1 18FF6B27x Rx d 8 00 00 00 00 00 00 00 00 
75117.740000 1 18FF7027x Rx d 8 7E 5C 06 5C 00 00 00 00 
75117.740000 1 18FF6D27x Rx d 8 04 54 64 52 09 21 04 11 
75117.740000 1 086 Rx d 8 0D 00 00 00 00 00 00 00 
75117.741000 1 CFF1227x Rx d 8 00 D0 07 00 00 00 00 00 
75117.741000 1 268 Rx d 7 B3 B6 23 00 00 00 00 
75117.741000 1 CF11227x Rx d 8 01 34 08 00 00 00 00 00 
75117.741000 1 C00F327x Rx d 8 00 02 28 28 28 28 80 22 
75117.742000 1 18FF4527x Rx d 8 3D 3B 3C 00 00 28 3C 82 
75117.742000 1 18FF2027x Rx d 8 00 11 00 02 04 00 00 00 
75117.742000 1 18FFA527x Rx d 8 02 00 00 00 00 00 00 00 
75117.743000 1 18FEF71Ex Rx d 8 00 00 00 00 EB 01 00 00 
75117.743000 1 18FF8427x Rx d 8 1C 00 09 1C 00 E5 07 00 
75117.743000 1 095 Tx d 8 00 00 00 00 00 00 00 00 
75117.743000 1 18FF6827x Rx d 8 00 00 00 00 00 00 01 01 
75117.746000 1 066 Rx d 8 04 00 00 00 00 00 00 00 
75117.747000 1 18FF1027x Rx d 5 00 00 00 00 00 
75117.747000 1 615 Rx d 8 00 00 00 00 00 00 00 00 
75117.747000 1 18FF1727x Rx d 8 00 00 00 00 41 10 00 00 
75117.747000 1 1D9 Rx d 8 34 00 03 00 00 00 00 00 
75117.748000 1 18FF8379x Rx d 8 03 00 20 00 00 00 00 00 
75117.748000 1 27F72B6x Rx d 8 06 00 00 00 00 00 00 00 
75117.748000 1 18FF2013x Rx d 8 04 E0 00 04 00 78 00 00 
75117.749000 1 18FFA413x Rx d 8 1C FF 10 01 07 00 00 00 
75117.749000 1 18FF6927x Rx d 8 FF 00 06 00 00 00 00 00 
75117.749000 1 18FEF71Ex Rx d 8 00 00 00 00 EB 01 00 00 
75117.749000 1 18FF8427x Rx d 8 1C 00 09 1C 00 E5 07 00 
75117.751000 1 268 Rx d 7 B4 B6 23 00 00 00 00 
75117.753000 1 18FF6C27x Rx d 8 0D FF 00 00 00 00 00 00 
75117.755000 1 CF11365x Rx d 8 0E 00 00 00 00 00 00 00 
75117.756000 1 CF11465x Rx d 8 18 87 7F 7D 00 00 7F 7D 
75117.756000 1 18FF1027x Rx d 5 00 00 00 00 00 
75117.757000 1 615 Rx d 8 00 00 00 00 00 00 00 00 
75117.757000 1 18FF1727x Rx d 8 00 00 00 00 41 10 00 00 
75117.757000 1 1D9 Rx d 8 34 00 03 00 00 00 00 00 
75117.757000 1 18FF8379x Rx d 8 04 00 00 00 00 00 00 00 
75117.758000 1 A100101x Rx d 1 E5 
75117.759000 1 18FF6A27x Rx d 8 00 00 00 00 00 00 00 06 
75117.759000 1 A100100x Rx d 8 E5 04 00 00 00 00 00 00 
75117.759000 1 18FEF71Ex Rx d 8 00 00 00 00 EA 01 00 00 
75117.759000 1 18FF8427x Rx d 8 1C 00 09 1C 00 E5 07 00 
75117.760000 1 400 Rx d 8 00 00 00 00 00 00 00 00 
75117.761000 1 268 Rx d 7 B5 B6 23 00 00 00 00 
75117.762000 1 095 Tx d 8 00 00 00 00 00 00 00 00 
75117.762000 1 CF11366x Rx d 8 0E 00 00 00 00 00 00 00 
75117.763000 1 CF11466x Rx d 8 16 87 7F 7D 00 00 7F 7D 
75117.763000 1 18FF6E27x Rx d 8 00 00 00 00 00 00 00 00 
75117.767000 1 18FF8C13x Rx d 8 0D 00 00 00 00 00 00 00 
75117.768000 1 18FF1027x Rx d 5 00 00 00 00 00 
75117.769000 1 615 Rx d 8 00 00 00 00 00 00 00 00 
75117.769000 1 18FF1727x Rx d 8 00 00 00 00 41 10 00 00 
75117.769000 1 18FF2027x Rx d 8 00 11 00 02 05 00 00 00 
75117.770000 1 18FFA527x Rx d 8 02 00 00 00 00 00 00 00 
75117.770000 1 18FEF71Ex Rx d 8 00 00 00 00 EA 01 00 00 
75117.770000 1 18FF5838x Rx d 8 06 00 00 00 37 00 00 00 
75117.771000 1 7149Ax Rx d 8 00 00 00 00 00 00 00 00 
75117.771000 1 069 Rx d 8 00 00 00 00 00 00 00 00 
75117.771000 1 268 Rx d 7 B6 B6 23 00 00 00 00 
75117.771000 1 C01FEFEx Rx d 8 00 00 00 00 00 00 00 00 
75117.772000 1 1D9 Rx d 8 34 00 03 00 00 00 00 00 
75117.772000 1 18FF6B27x Rx d 8 00 00 00 00 00 00 00 00 
75117.772000 1 18FF8379x Rx d 8 05 00 00 0E 00 00 10 02 
75117.772000 1 18FF8427x Rx d 8 1C 00 09 1C 00 E5 07 00 
75117.773000 1 18FF8479x Rx d 8 01 00 00 00 00 00 00 00 
75117.773000 1 27F72BAx Rx d 8 1C 40 05 18 0B 04 00 00 
75117.773000 1 610 Rx d 8 00 00 00 00 00 00 00 00 
75117.773000 1 18FF6827x Rx d 8 00 00 00 00 00 00 01 01 
75117.776000 1 066 Rx d 8 05 00 00 00 00 00 00 00 
75117.777000 1 18FF1027x Rx d 5 00 00 00 00 00 
75117.777000 1 615 Rx d 8 00 00 00 00 00 00 00 00 
75117.777000 1 18FF1727x Rx d 8 00 00 00 00 41 10 00 00 
75117.777000 1 1D9 Rx d 8 34 00 03 00 00 00 00 00 
75117.778000 1 18FF8379x Rx d 8 06 00 00 00 00 00 00 00 
75117.778000 1 27F72B6x Rx d 8 87 00 00 00 00 00 00 00 
75117.778000 1 18FF2013x Rx d 8 04 E0 00 04 00 08 00 00 
75117.779000 1 18FFA413x Rx d 8 1C FF 10 01 00 00 00 00 
75117.779000 1 18FF6927x Rx d 8 FF 00 06 00 00 00 00 00 
75117.779000 1 18FEF71Ex Rx d 8 00 00 00 00 EA 01 00 00 
75117.779000 1 18FF8427x Rx d 8 1C 00 09 1C 00 E5 07 00 
75117.780000 1 095 Tx d 8 00 00 00 00 00 00 00 00 
75117.781000 1 268 Rx d 7 B7 B6 23 00 00 00 00 
75117.783000 1 18FF6C27x Rx d 8 0D FF 00 00 00 00 00 00 
75117.786000 1 18FF1027x Rx d 5 00 00 00 00 00 
75117.787000 1 615 Rx d 8 00 00 00 00 00 00 00 00 
75117.787000 1 18FF1727x Rx d 8 00 00 00 00 41 10 00 00 
75117.787000 1 1D9 Rx d 8 34 00 03 00 00 00 00 00 
75117.787000 1 18FF8379x Rx d 8 07 10 00 00 10 00 00 00 
75117.789000 1 18FF6A27x Rx d 8 00 00 00 00 00 00 00 06 
75117.789000 1 18FF8427x Rx d 8 1C 00 09 1C 00 E5 07 00 
75117.789000 1 18FEF71Ex Rx d 8 00 00 00 00 EA 01 00 00 
75117.791000 1 268 Rx d 7 B8 B6 23 00 00 00 00 
75117.793000 1 18FF6E27x Rx d 8 00 00 00 00 00 00 00 00 
75117.796000 1 18FF1027x Rx d 5 00 00 00 00 00 
75117.797000 1 615 Rx d 8 00 00 00 00 00 00 00 00 
75117.797000 1 18FF1727x Rx d 8 00 00 00 00 41 10 00 00 
75117.797000 1 1D9 Rx d 8 34 00 03 00 00 00 00 00 
75117.797000 1 18FF8379x Rx d 8 18 10 00 00 10 00 00 00 
75117.798000 1 095 Tx d 8 00 00 00 00 00 00 00 00 
75117.799000 1 18FF6B27x Rx d 8 00 00 00 00 00 00 00 00 
75117.799000 1 18FF2027x Rx d 8 00 11 00 02 06 00 00 00 
75117.799000 1 18FFA527x Rx d 8 02 00 00 00 00 00 00 00 
75117.800000 1 18FEF71Ex Rx d 8 00 00 00 00 EB 01 00 00 
75117.800000 1 18FF8427x Rx d 8 1C 00 09 1C 00 E5 07 00 
75117.801000 1 268 Rx d 7 B9 B6 23 00 00 00 00 
75117.803000 1 18FF6827x Rx d 8 00 00 00 00 00 00 01 01 
75117.804000 1 C0027F3x Rx d 8 08 D0 07 7D 00 10 28 6B 
75117.804000 1 101227F3x Rx d 8 11 0F 0F 16 0A 0F 04 05 
75117.804000 1 101627F3x Rx d 8 3D 0B 02 3B 0E 06 00 00 
75117.805000 1 182027F3x Rx d 8 FC 02 00 00 76 11 5A 19 
75117.805000 1 182127F3x Rx d 8 BC 1B B2 11 64 0A 63 00 
75117.805000 1 182227F3x Rx d 8 02 00 00 7D 00 7D 00 00 
75117.805000 1 182327F3x Rx d 8 44 01 42 18 DA 07 07 00 
75117.806000 1 182627F3x Rx d 8 3C 19 3C 00 00 7D 00 7D 
75117.806000 1 101027F3x Rx d 8 00 00 00 00 00 00 00 00 
75117.806000 1 10000111x Rx d 8 C0 C0 C0 C0 C0 C0 01 00 
75117.807000 1 066 Rx d 8 06 00 00 00 00 00 00 00 
75117.807000 1 18FF1027x Rx d 5 00 00 00 00 00 
75117.807000 1 615 Rx d 8 00 00 00 00 00 00 00 00 
75117.807000 1 18FF1727x Rx d 8 00 00 00 00 41 10 00 00 
75117.808000 1 1D9 Rx d 8 34 00 03 00 00 00 00 00 
75117.808000 1 18FF8379x Rx d 8 09 A1 01 08 00 00 00 00 
75117.808000 1 27F72B6x Rx d 8 08 00 00 00 00 00 00 00 
75117.808000 1 18FF2013x Rx d 8 04 E0 00 04 00 18 00 00 
75117.809000 1 18FF6927x Rx d 8 FF 00 06 00 00 00 00 00 
75117.809000 1 18FEF71Ex Rx d 8 00 00 00 00 EB 01 00 00 
75117.809000 1 18FF8427x Rx d 8 1C 00 09 1C 00 E5 07 00 
75117.810000 1 18FFA413x Rx d 8 1C FF 10 01 01 00 00 00 
75117.811000 1 268 Rx d 7 BA B6 23 00 00 00 00 
75117.813000 1 18FF6C27x Rx d 8 0D FF 00 00 00 00 00 00 
75117.815000 1 095 Tx d 8 00 00 00 00 00 00 00 00 
75117.816000 1 18FF1027x Rx d 5 00 00 00 00 00 
75117.817000 1 615 Rx d 8 00 00 00 00 00 00 00 00 
75117.817000 1 18FF1727x Rx d 8 00 00 00 00 41 10 00 00 
75117.817000 1 C01FEFEx Rx d 8 00 00 00 00 00 00 00 00 
75117.817000 1 1D9 Rx d 8 34 00 03 00 00 00 00 00 
75117.818000 1 18FF8379x Rx d 8 0A 00 00 00 00 00 00 00 
75117.819000 1 18FF6A27x Rx d 8 00 00 00 00 00 00 00 06 
75117.819000 1 18FF8427x Rx d 8 1C 00 09 1C 00 E5 07 00 
75117.819000 1 18FEF71Ex Rx d 8 00 00 00 00 EB 01 00 00 
75117.821000 1 268 Rx d 7 BB B6 23 00 00 00 00 
75117.823000 1 18FF6E27x Rx d 8 00 00 00 00 00 00 00 00 
75117.826000 1 18FF1027x Rx d 5 00 00 00 00 00 
75117.827000 1 615 Rx d 8 00 00 00 00 00 00 00 00 
75117.827000 1 18FF1727x Rx d 8 00 00 00 00 41 10 00 00 
75117.827000 1 1D9 Rx d 8 34 00 03 00 00 00 00 00 
75117.827000 1 18FF8379x Rx d 8 0B 00 00 00 40 08 00 00 
75117.829000 1 18FF6B27x Rx d 8 00 00 00 00 00 00 00 00 
75117.829000 1 18FF2027x Rx d 8 00 11 00 02 07 00 00 00 
75117.829000 1 18FFA527x Rx d 8 02 00 00 00 00 00 00 00 
75117.830000 1 18FEF71Ex Rx d 8 00 00 00 00 EB 01 00 00 
75117.830000 1 18FF8427x Rx d 8 1C 00 09 1C 00 E5 07 00 
75117.831000 1 268 Rx d 7 BC B6 23 00 00 00 00 
75117.832000 1 095 Tx d 8 00 00 00 00 00 00 00 00 
75117.833000 1 18FF6827x Rx d 8 00 00 00 00 00 00 01 01 
75117.836000 1 066 Rx d 8 07 00 00 00 00 00 00 00 
75117.837000 1 18FF1027x Rx d 5 00 00 00 00 00 
75117.837000 1 615 Rx d 8 00 00 00 00 00 00 00 00 
75117.837000 1 18FF1727x Rx d 8 00 00 00 00 41 10 00 00 
75117.837000 1 1D9 Rx d 8 34 00 03 00 00 00 00 00 
75117.838000 1 18FF8379x Rx d 8 AC 73 15 06 40 10 40 10 
75117.838000 1 27F72B6x Rx d 8 00 00 00 00 00 00 00 00 
75117.838000 1 18FF2013x Rx d 8 04 E0 00 04 00 28 00 00 
75117.839000 1 18FFA413x Rx d 8 1C FF 10 01 02 00 00 00 
75117.839000 1 18FF6927x Rx d 8 FF 00 06 00 00 00 00 00 
75117.840000 1 18FF6D27x Rx d 8 04 54 68 52 09 21 04 11 
75117.840000 1 18FF8427x Rx d 8 1C 00 09 1C 00 E5 07 00 
75117.840000 1 086 Rx d 8 0D 00 00 00 00 00 00 00 
